(1628870267.291576) can0 0A4#40000000000000EC
(1628870267.307577) can0 0BC#000011FE51FF0023
(1628870267.307579) can0 128#0000100000000041
(1628870267.338682) can0 0B4#000000006000001C
(1628870267.338685) can0 236#27FF050068
(1628870267.338686) can0 03F#4702007F000D
(1628870267.338688) can0 0A6#00000040000000EE
(1628870267.369519) can0 125#F000000000001D
(1628870267.369521) can0 2C9#000DA7028B000014
(1628870267.417689) can0 236#27FF050068
(1628870267.449834) can0 0A6#00000040000000EE
(1628870267.449837) can0 037#000054FFFF0696
(1628870267.449838) can0 2F0#1000FA00
(1628870267.449868) can0 2C9#000DA7028B000014
(1628870267.480925) can0 3A0#007700000000002A
(1628870267.480928) can0 128#0000100000000041
(1628870267.480930) can0 0B7#0000000000000000
(1628870267.480932) can0 032#000000000000003A
(1628870267.480934) can0 03F#4702007F000D
(1628870267.544896) can0 127#00100008000682D0
(1628870267.561004) can0 35C#00800000000000E7
(1628870267.561006) can0 03F#4702007F000D
(1628870267.591981) can0 2C9#000DA70288000011
(1628870267.591984) can0 32D#00519F4C00000000
(1628870267.591985) can0 0B7#0000000000000000
(1628870267.591987) can0 037#00005400000698
(1628870267.622955) can0 032#000000000000003A
(1628870267.622958) can0 330#0000000040000100
(1628870267.670711) can0 03F#4702007F000D
(1628870267.686807) can0 125#F000000000001D
(1628870267.686810) can0 032#000000000000003A
(1628870267.717961) can0 247#06008000000000
(1628870267.717964) can0 0B7#0000000000000000
(1628870267.717966) can0 037#000054FFFF0696
(1628870267.717969) can0 244#11000000FFFD005B
(1628870267.733945) can0 245#000000004C
(1628870267.733948) can0 2C9#000DA7028B000014
(1628870267.797801) can0 0B7#0000000000000000
(1628870267.828845) can0 024#0200020441F980EE
(1628870267.828848) can0 128#0000100000000041
(1628870267.828851) can0 032#000000100000004A
(1628870267.828853) can0 0A4#40000000000000EC
(1628870267.859419) can0 0BC#000011FE51FF0023
(1628870267.859422) can0 03F#4702007F000D
(1628870267.859424) can0 45A#5A04000000000000
(1628870267.859426) can0 125#F000000000001D
(1628870267.923811) can0 12D#7FFF7FFF7FFFFFAF
(1628870267.955938) can0 03F#4702007F000D
(1628870267.955942) can0 12E#7FFF7FFF7FFFB0
(1628870267.955944) can0 12F#FF7FFF7FFF7FFFB1
(1628870267.955946) can0 0A4#40000000000000EC
(1628870267.987940) can0 0BC#000011FE51FF0023
(1628870267.987942) can0 037#00005400000698
(1628870267.987944) can0 032#000000000000003A
(1628870267.987947) can0 3CB#00000000161601
(1628870268.051699) can0 245#000000004C
(1628870268.067947) can0 409#0000000012
(1628870268.067952) can0 12D#7FFF7FFF7FFFFFAF
(1628870268.099760) can0 12E#7FFF7FFF7FFFB0
(1628870268.099763) can0 12F#FF7FFF7FFF7FFFB1
(1628870268.099766) can0 127#00100008000681CF
(1628870268.099768) can0 0A6#00000040000000EE
(1628870268.115865) can0 032#000000000000003A
(1628870268.115867) can0 03F#4702007F000D
(1628870268.179779) can0 125#F000000000001D
(1628870268.210748) can0 12D#7FFF7FFF7FFFFFAF
(1628870268.210751) can0 12E#7FFF7FFF7FFFB0
(1628870268.210752) can0 12F#FF7FFF7FFF7FFFB1
(1628870268.210754) can0 037#00005400000698
(1628870268.241831) can0 2C9#000DA70288000011
(1628870268.241833) can0 032#000000000000003A
(1628870268.241864) can0 127#00100008000681CF
(1628870268.241866) can0 0B7#0000000000000000
(1628870268.305742) can0 12A#00000000000032
(1628870268.336757) can0 128#0000100000000041
(1628870268.336759) can0 247#06008000000000
(1628870268.336761) can0 0B7#0000000000000000
(1628870268.336764) can0 12D#7FFF7FFF7FFFFFAF
(1628870268.367648) can0 12E#7FFF7FFF7FFFB0
(1628870268.367651) can0 12F#FF7FFF7FFF7FFFB1
(1628870268.367653) can0 244#11000000FFFE005C
(1628870268.367655) can0 03F#4702007F000D
(1628870268.431559) can0 032#000000000000003A
(1628870268.447727) can0 03F#4702007F000D
(1628870268.447730) can0 0B7#0000000000000000
(1628870268.478290) can0 3C8#002C00000214182D
(1628870268.478293) can0 12A#00000000000032
(1628870268.478295) can0 037#000054FFFF0696
(1628870268.478297) can0 12D#7FFF7FFF7FFFFFAF
(1628870268.494522) can0 0A4#40000000000000EC
(1628870268.494525) can0 12E#7FFF7FFF7FFFB0
(1628870268.558687) can0 037#000054FFFF0696
(1628870268.589651) can0 3CA#0020000000F3
(1628870268.589654) can0 032#000000100000004A
(1628870268.589656) can0 0A4#40000000000000EC
(1628870268.589658) can0 127#00100008000682D0
(1628870268.620542) can0 0BC#000011FE51FF0023
(1628870268.620544) can0 12A#00000000000032
(1628870268.620546) can0 0B4#000000006000001C
(1628870268.620548) can0 236#27FF050068
(1628870268.684710) can0 128#0000100000000041
(1628870268.700577) can0 247#06008000000000
(1628870268.700580) can0 0A4#40000000000000EC
(1628870268.731506) can0 244#1100000000010060
(1628870268.731509) can0 03F#4702007F000D
(1628870268.731511) can0 0BC#000011FE51FF0023
(1628870268.731513) can0 125#F000000000001D
(1628870268.747506) can0 245#000000004C
(1628870268.747508) can0 032#000000000000003A
(1628870268.811514) can0 0BC#000011FE51FF0023
(1628870268.827530) can0 037#00005400000698
(1628870268.827533) can0 3CF#10001A0809
(1628870268.858505) can0 0B4#000000006000001C
(1628870268.858507) can0 236#27FF050068
(1628870268.858535) can0 0A6#00000040000000EE
(1628870268.858538) can0 128#0000100000000041
(1628870268.889462) can0 032#000000100000004A
(1628870268.889465) can0 03F#4702007F000D
(1628870268.889466) can0 12A#00000000000032
(1628870268.937458) can0 0B4#000000006000001C
(1628870268.969478) can0 620#10000000B0000810
(1628870268.969481) can0 236#27FF050068
(1628870268.969483) can0 4A6#86805A56575757FF
(1628870268.969484) can0 127#00100008000682D0
(1628870269.001018) can0 0A6#00000040000000EE
(1628870269.001021) can0 03F#4702007F000D
(1628870269.001023) can0 037#000054FFFF0696
(1628870269.001026) can0 3CF#10001A0809
(1628870269.001028) can0 032#000000000000003A
(1628870269.065068) can0 037#00005400000698
(1628870269.081076) can0 0B7#0000000000000000
(1628870269.081079) can0 127#00100008000681CF
(1628870269.112237) can0 03F#4702007F000D
(1628870269.112239) can0 032#000000000000003A
(1628870269.112241) can0 2C9#000DA70288000011
(1628870269.112243) can0 0A4#40000000000000EC
(1628870269.143317) can0 6C0#E40080A100010000
(1628870269.143319) can0 0BC#000011FE51FF0023
(1628870269.191436) can0 032#000000000000003A
(1628870269.207345) can0 128#0000100000000041
(1628870269.207348) can0 0B7#0000000000000000
(1628870269.238291) can0 03F#4702007F000D
(1628870269.238293) can0 125#F000000000001D
(1628870269.238296) can0 0A4#40000000000000EC
(1628870269.238297) can0 037#00005400000698
(1628870269.269169) can0 0BC#000011FE51FF0023
(1628870269.269172) can0 3FA#FF
(1628870269.269174) can0 024#0200020441F980EE
(1628870269.317216) can0 12D#7FFF7FFF7FFFFFAF
(1628870269.348415) can0 12E#7FFF7FFF7FFFB0
(1628870269.348418) can0 12F#FF7FFF7FFF7FFFB1
(1628870269.348420) can0 03F#4702007F000D
(1628870269.348422) can0 0B7#0000000000000000
(1628870269.364384) can0 032#000000000000003A
(1628870269.364387) can0 037#00005400000698
(1628870269.379987) can0 247#06008000000000
(1628870269.379990) can0 2F0#1000FA00
(1628870269.444402) can0 63B#1600054800004E64
(1628870269.460371) can0 12D#7FFF7FFF7FFFFFAF
(1628870269.460374) can0 12E#7FFF7FFF7FFFB0
(1628870269.491447) can0 12F#FF7FFF7FFF7FFFB1
(1628870269.491450) can0 127#00100008000681CF
(1628870269.491452) can0 0A4#40000000000000EC
(1628870269.491454) can0 0BC#000011FE51FF0023
(1628870269.507330) can0 032#000000000000003A
(1628870269.507333) can0 03F#4702007F000D
(1628870269.571403) can0 0A4#40000000000000EC
(1628870269.602411) can0 03F#4702007F000D
(1628870269.602414) can0 0BC#000011FE51FF0023
(1628870269.602416) can0 125#F000000000001D
(1628870269.602418) can0 12D#7FFF7FFF7FFFFFAF
(1628870269.618387) can0 12E#7FFF7FFF7FFFB0
(1628870269.618390) can0 12F#FF7FFF7FFF7FFFB1
(1628870269.649356) can0 330#0000000040000100
(1628870269.649358) can0 624#1000574090400020
(1628870269.696952) can0 0A4#40000000000000EC
(1628870269.713289) can0 0BC#000011FE51FF0023
(1628870269.713291) can0 037#000054FFFF0696
(1628870269.744295) can0 247#06008000000000
(1628870269.744298) can0 12A#00000000000032
(1628870269.744301) can0 244#11000001FFFF005E
(1628870269.744302) can0 024#0200020341F980ED
(1628870269.760362) can0 3F9#941C56420000004C
(1628870269.760365) can0 0A6#00000040000000EE
(1628870269.824328) can0 032#000000000000003A
(1628870269.855324) can0 0A6#00000040000000EE
(1628870269.855327) can0 03F#4702007F000D
(1628870269.855329) can0 12A#00000000000032
(1628870269.855331) can0 037#000054FFFF0696
(1628870269.886304) can0 12D#7FFF7FFF7FFFFFAF
(1628870269.886307) can0 12E#7FFF7FFF7FFFB0
(1628870269.886309) can0 12F#FF7FFF7FFF7FFFB1
(1628870269.886311) can0 0B7#0000000000000000
(1628870269.950266) can0 037#000054FFFF0696
(1628870269.981270) can0 032#000000000000003A
(1628870269.981272) can0 127#00100008000681CF
(1628870269.981274) can0 12A#00000000000032
(1628870269.981276) can0 0B7#0000000000000000
(1628870269.997262) can0 35C#00800000000000E7
(1628870269.997265) can0 03F#4702007F000D
(1628870270.028013) can0 12D#7FFF7FFF7FFFFFAF
(1628870270.028016) can0 12E#7FFF7FFF7FFFB0
(1628870270.076095) can0 244#11000000FFFE005C
(1628870270.107161) can0 128#0000100000000041
(1628870270.107164) can0 245#000000004C
(1628870270.107166) can0 610#20000064D0FFFD40
(1628870270.107168) can0 0B7#0000000000000000
(1628870270.138139) can0 03F#4702007F000D
(1628870270.138142) can0 032#000000000000003A
(1628870270.138144) can0 125#F000000000001D
(1628870270.138146) can0 420#00000000FEFF80A9
(1628870270.202042) can0 03F#4702007F000D
(1628870270.233105) can0 3C8#002C00000214182D
(1628870270.233107) can0 0B7#0000000000000000
(1628870270.233109) can0 037#00005400000698
(1628870270.233110) can0 0A4#40000000000000EC
(1628870270.249074) can0 0BC#000011FE51FF0023
(1628870270.249077) can0 032#000000000000003A
(1628870270.264886) can0 128#0000100000000041
(1628870270.264889) can0 0B4#000000006000001C
(1628870270.328829) can0 0B7#0000000000000000
(1628870270.344973) can0 127#00100008000681CF
(1628870270.344975) can0 0A4#40000000000000EC
(1628870270.376118) can0 0BC#000011FE51FF0023
(1628870270.376121) can0 03F#4702007F000D
(1628870270.376123) can0 3C8#002C00000214182D
(1628870270.376124) can0 0B4#000000006000001C
(1628870270.406977) can0 247#06008000000000
(1628870270.406980) can0 236#27FF040067
(1628870270.454914) can0 032#000000000000003A
(1628870270.485879) can0 03F#4702007F000D
(1628870270.485882) can0 0A4#40000000000000EC
(1628870270.485915) can0 0BC#010011FE51FF0024
(1628870270.485916) can0 125#F000000000001D
(1628870270.516983) can0 35C#00800000000000E7
(1628870270.516985) can0 0B4#000000006000001C
(1628870270.516988) can0 236#27FF050068
(1628870270.516989) can0 037#00005400000698
(1628870270.580980) can0 12D#7FFF7FFF7FFFFFAF
(1628870270.597054) can0 12E#7FFF7FFF7FFFB0
(1628870270.597058) can0 12F#FF7FFF7FFF7FFFB1
(1628870270.628045) can0 0A4#40000000000000EC
(1628870270.628048) can0 037#00005400000698
(1628870270.628050) can0 610#20000064D0FFFD40
(1628870270.628052) can0 0BC#010011FE51FF0024
(1628870270.644051) can0 0B4#000000006000001C
(1628870270.707871) can0 127#00100008000681CF
(1628870270.723805) can0 0B4#000000006000001C
(1628870270.723808) can0 236#27FF050068
(1628870270.754885) can0 12D#7FFF7FFF7FFFFFAF
(1628870270.754888) can0 12E#7FFF7FFF7FFFB0
(1628870270.754890) can0 12F#FF7FFF7FFF7FFFB1
(1628870270.754893) can0 0A6#00000040000000EE
(1628870270.770857) can0 03F#4702007F000D
(1628870270.770859) can0 247#06008000000000
(1628870270.834870) can0 12A#00000000000032
(1628870270.865614) can0 0A6#00000040000000EE
(1628870270.865617) can0 037#000054FFFE0695
(1628870270.865619) can0 12D#7FFF7FFF7FFFFFAF
(1628870270.865620) can0 12E#7FFF7FFF7FFFB0
(1628870270.881526) can0 12F#FF7FFF7FFF7FFFB1
(1628870270.881529) can0 127#00100008000681CF
(1628870270.913420) can0 3CB#01FF0000161601
(1628870270.913423) can0 0B7#0000000000000000
(1628870270.961842) can0 128#0000100000000041
(1628870270.977821) can0 12A#00000000000032
(1628870270.977824) can0 03F#4702007F000D
(1628870271.008613) can0 0B7#0000000000000000
(1628870271.008616) can0 125#F000000000001D
(1628870271.008618) can0 12D#7FFF7FFF7FFFFFAF
(1628870271.008619) can0 12E#7FFF7FFF7FFFB0
(1628870271.039540) can0 12F#FF7FFF7FFF7FFFB1
(1628870271.039543) can0 037#00005400000698
(1628870271.087770) can0 247#06008000000000
(1628870271.103789) can0 032#000000100000004A
(1628870271.103792) can0 244#11000000FFFE005C
(1628870271.134795) can0 0B7#0000000000000000
(1628870271.134798) can0 037#000054FFFE0695
(1628870271.134799) can0 245#000000004C
(1628870271.134801) can0 12A#00000000000032
(1628870271.165737) can0 2F0#1000FA00
(1628870271.165740) can0 0A4#40000000000000EC
(1628870271.213743) can0 1D3#0028000000000004
(1628870271.229345) can0 0B7#0000000000000000
(1628870271.229348) can0 127#00100008000681CF
(1628870271.260690) can0 032#000000000000003A
(1628870271.260693) can0 0A4#40000000000000EC
(1628870271.260695) can0 0BC#010011FE51FF0024
(1628870271.260697) can0 03F#4702007F000D
(1628870271.291627) can0 12A#00000000000032
(1628870271.291630) can0 0A6#00000040000000EE
(1628870271.339640) can0 1D3#00280000FF000003
(1628870271.355639) can0 3CB#01FF0000161601
(1628870271.355641) can0 03F#4702007F000D
(1628870271.386641) can0 125#F000000000001D
(1628870271.386644) can0 0A4#40000000000000EC
(1628870271.386646) can0 0BC#000011FE51FF0023
(1628870271.386648) can0 037#000054FFFE0695
(1628870271.417541) can0 032#000000000000003A
(1628870271.417544) can0 0A6#00000040000000EE
(1628870271.465246) can0 244#11000003FFFF0060
(1628870271.481435) can0 037#000054FFFE0695
(1628870271.481438) can0 245#000000004C
(1628870271.512569) can0 0A4#40000000000000EC
(1628870271.512571) can0 1D3#00280000FF000003
(1628870271.512573) can0 0BC#010011FE51FF0024
(1628870271.512575) can0 3CA#0020000000F3
(1628870271.543610) can0 128#0000100000000041
(1628870271.543613) can0 0A6#00000040000000EE
(1628870271.591720) can0 0A4#40000000000000EC
(1628870271.622661) can0 0BC#010011FE51FF0024
(1628870271.622663) can0 032#000000000000003A
(1628870271.622666) can0 127#00100008000682D0
(1628870271.622668) can0 1D3#0028000000000004
(1628870271.638734) can0 0A6#00000040000000EE
(1628870271.638737) can0 03F#4702007F000D
(1628870271.669689) can0 330#0000000040000100
(1628870271.669691) can0 037#00005400000698
(1628870271.669722) can0 3FA#FF
(1628870271.717308) can0 0BC#000011FE51FF0023
(1628870271.748732) can0 12D#7FFF7FFF7FFFFFAF
(1628870271.748735) can0 12E#7FFF7FFF7FFFB0
(1628870271.748739) can0 12F#FF7FFF7FFF7FFFB1
(1628870271.748742) can0 348#00020000002C0485
(1628870271.779669) can0 03F#4702007F000D
(1628870271.779672) can0 125#F000000000001D
(1628870271.779674) can0 0A6#00000040000000EE
(1628870271.779676) can0 032#000000100000004A
(1628870271.843644) can0 037#000054FFFF0696
(1628870271.859636) can0 245#000000004C
(1628870271.859639) can0 0A6#00000040000000EE
(1628870271.890636) can0 348#00020000002C0485
(1628870271.890640) can0 12D#7FFF7FFF7FFFFFAF
(1628870271.890672) can0 12E#7FFF7FFF7FFFB0
(1628870271.890674) can0 12F#FF7FFF7FFF7FFFB1
(1628870271.921481) can0 128#0000100000000041
(1628870271.921484) can0 032#000000000000003A
(1628870271.969612) can0 0A6#00000040000000EE
(1628870271.985629) can0 127#00100008000681CF
(1628870271.985631) can0 39B#0004000000000000
(1628870272.016210) can0 12A#00000000000032
(1628870272.016214) can0 3CA#0020000000F3
(1628870272.016216) can0 348#00020000002C0485
(1628870272.016218) can0 03F#4702007F000D
(1628870272.047441) can0 3C8#002C00000214182D
(1628870272.047444) can0 12D#7FFF7FFF7FFFFFAF
(1628870272.095337) can0 03F#4702007F000D
(1628870272.126507) can0 125#F000000000001D
(1628870272.126510) can0 1D2#990402AD028B00B4
(1628870272.126512) can0 032#000000000000003A
(1628870272.126513) can0 427#0000000000000000
(1628870272.142569) can0 037#00005400000698
(1628870272.142571) can0 348#00020000002C0485
(1628870272.173360) can0 12A#00000000000032
(1628870272.173363) can0 0B7#0000000000000000
(1628870272.221289) can0 4AE#FFFD80D308015A8A
(1628870272.237438) can0 1D2#990402AD028B00B4
(1628870272.237441) can0 0B7#0000000000000000
(1628870272.268512) can0 128#0000100000000041
(1628870272.268515) can0 032#000000100000004A
(1628870272.268517) can0 3A0#006E00000000002C
(1628870272.299450) can0 348#00020000002C0485
(1628870272.299453) can0 03F#4702007F000D
(1628870272.299454) can0 125#F000000000001D
(1628870272.347148) can0 2CB#3A249600C6
(1628870272.363255) can0 0B7#0000000000000000
(1628870272.363257) can0 03F#4702007F000D
(1628870272.394371) can0 1D2#990402AD028B00B4
(1628870272.394374) can0 32D#0051DF4C00000000
(1628870272.394376) can0 0A4#40000000000000EC
(1628870272.394378) can0 037#00005400000698
(1628870272.425284) can0 3CF#10001A0809
(1628870272.425287) can0 0BC#000011FE51FF0023
(1628870272.473064) can0 0B7#0000000000000000
(1628870272.489034) can0 2CB#3A249600C6
(1628870272.489036) can0 037#00005400000698
(1628870272.520325) can0 1D2#990402AA028800AE
(1628870272.520328) can0 0A4#40000000000000EC
(1628870272.520330) can0 0BC#000011FE51FF0023
(1628870272.520331) can0 127#00100008000682D0
(1628870272.536332) can0 247#06008000000000
(1628870272.536335) can0 0B4#000000006000001C
(1628870272.600271) can0 024#0200020441F880ED
(1628870272.631211) can0 032#000000100000004A
(1628870272.631213) can0 128#0000100000000041
(1628870272.631215) can0 2CB#3A249600C6
(1628870272.631217) can0 0A4#40000000000000EC
(1628870272.662269) can0 0BC#000011FE51FF0023
(1628870272.662272) can0 03F#4702007F000D
(1628870272.662274) can0 0B4#000000006000001C
(1628870272.662276) can0 125#F000000000001D
(1628870272.725972) can0 03F#4702007F000D
(1628870272.758223) can0 12F#FF7FFF7FFF7FFFB1
(1628870272.758226) can0 0A4#40000000000000EC
(1628870272.758228) can0 0BC#000011FE51FF0023
(1628870272.758229) can0 2CB#3A249600C6
(1628870272.789205) can0 032#000000000000003A
(1628870272.789208) can0 037#000054FFFF0696
(1628870272.789209) can0 0B4#000000006000001C
(1628870272.789211) can0 236#27FF050068
(1628870272.789212) can0 2F0#1000FA00
(1628870272.853093) can0 236#27FF050068
(1628870272.884130) can0 12D#7FFF7FFF7FFFFFAF
(1628870272.884132) can0 12E#7FFF7FFF7FFFB0
(1628870272.884134) can0 12F#FF7FFF7FFF7FFFB1
(1628870272.884137) can0 0A6#00000040000000EE
(1628870272.900113) can0 127#00100008000681CF
(1628870272.900116) can0 2CB#3A249600C6
(1628870272.931078) can0 247#06008000000000
(1628870272.931081) can0 244#1100FFFF0000005D
(1628870272.979169) can0 12A#00000000000032
(1628870273.009766) can0 0A6#00000040000000EE
(1628870273.009769) can0 03F#4702007F000D
(1628870273.009771) can0 125#F000000000001D
(1628870273.009773) can0 12D#7FFF7FFF7FFFFFAF
(1628870273.025937) can0 12E#7FFF7FFF7FFFB0
(1628870273.025940) can0 12F#FF7FFF7FFF7FFFB1
(1628870273.056950) can0 2CB#3A249600C6
(1628870273.056952) can0 037#000054FFFF0696
(1628870273.105228) can0 037#00005400000698
(1628870273.136230) can0 12A#00000000000032
(1628870273.136232) can0 128#0000100000000041
(1628870273.136234) can0 2CB#3A249600C6
(1628870273.136236) can0 0B7#0000000000000000
(1628870273.152231) can0 12D#7FFF7FFF7FFFFFAF
(1628870273.152234) can0 12E#7FFF7FFF7FFFB0
(1628870273.183181) can0 12F#FF7FFF7FFF7FFFB1
(1628870273.183183) can0 03F#4702007F000D
(1628870273.183185) can0 125#F000000000001D
(1628870273.231113) can0 127#00100008000681CF
(1628870273.262193) can0 247#06008000000000
(1628870273.262196) can0 2C9#000DA7028B000014
(1628870273.262198) can0 330#0000000040000100
(1628870273.262200) can0 244#11000000FFFE005C
(1628870273.293111) can0 032#000000000000003A
(1628870273.293115) can0 0B7#0000000000000000
(1628870273.293148) can0 245#000000004C
(1628870273.293150) can0 03F#4702007F000D
(1628870273.357100) can0 03F#4702007F000D
(1628870273.388078) can0 125#F000000000001D
(1628870273.388080) can0 0B7#0000000000000000
(1628870273.388082) can0 2C9#000DA7028B000014
(1628870273.388084) can0 037#000054FFFF0696
(1628870273.419168) can0 032#000000000000003A
(1628870273.419171) can0 0A4#40000000000000EC
(1628870273.419173) can0 0BC#000011FE51FF0023
(1628870273.419175) can0 127#00100008000682D0
(1628870273.483070) can0 0B7#0000000000000000
(1628870273.514131) can0 128#0000100000000041
(1628870273.514133) can0 2C9#000DA70288000011
(1628870273.514165) can0 0A4#40000000000000EC
(1628870273.545125) can0 0BC#000011FE51FF0023
(1628870273.545128) can0 03F#4702007F000D
(1628870273.545130) can0 125#F000000000001D
(1628870273.545131) can0 032#000000000000003A
(1628870273.545133) can0 2CB#3A249600C6
(1628870273.609105) can0 247#06008000000000
(1628870273.625005) can0 244#1100000200010062
(1628870273.625008) can0 245#000000004C
(1628870273.657099) can0 03F#4702007F000D
(1628870273.657102) can0 3C8#002C00000214192E
(1628870273.657103) can0 0A4#40000000000000EC
(1628870273.657105) can0 0BC#000011FE51FF0023
(1628870273.687940) can0 2C9#000DA70288000011
(1628870273.687943) can0 037#00005400000698
(1628870273.735988) can0 0A4#40000000000000EC
(1628870273.751952) can0 037#000054FFFF0696
(1628870273.751955) can0 0BC#000011FE51FF0023
(1628870273.783039) can0 032#000000000000003A
(1628870273.783042) can0 4A6#06805A56575757FF
(1628870273.783044) can0 127#00100008000681CF
(1628870273.783045) can0 0A6#00000040000000EE
(1628870273.814019) can0 2C9#000DA7028B000014
(1628870273.814022) can0 03F#4702007F000D
(1628870273.862006) can0 0BC#000011FE51FF0023
(1628870273.892917) can0 12D#7FFF7FFF7FFFFFAF
(1628870273.892920) can0 12E#7FFF7FFF7FFFB0
(1628870273.892922) can0 12F#FF7FFF7FFF7FFFB1
(1628870273.892924) can0 128#0000100000000041
(1628870273.908867) can0 0A6#00000040000000EE
(1628870273.908870) can0 032#000000000000003A
(1628870273.939870) can0 03F#4702007F000D
(1628870273.939873) can0 498#500000B53900001E
(1628870273.987868) can0 0A6#00000040000000EE
(1628870274.018872) can0 12D#7FFF7FFF7FFFFFAF
(1628870274.018874) can0 12E#7FFF7FFF7FFFB0
(1628870274.018876) can0 12F#FF7FFF7FFF7FFFB1
(1628870274.018878) can0 037#00005400000698
(1628870274.034634) can0 032#000000000000003A
(1628870274.034637) can0 128#0000100000000041
(1628870274.066705) can0 2C9#000DA70288000011
(1628870274.066708) can0 0B7#0000000000000000
(1628870274.114785) can0 12A#00000000000032
(1628870274.145932) can0 127#00100008000682D0
(1628870274.145936) can0 12D#7FFF7FFF7FFFFFAF
(1628870274.145938) can0 12E#7FFF7FFF7FFFB0
(1628870274.145940) can0 12F#FF7FFF7FFF7FFFB1
(1628870274.161939) can0 0B7#0000000000000000
(1628870274.161942) can0 03F#4702007F000D
(1628870274.192887) can0 2C9#000DA70288000011
(1628870274.192891) can0 032#000000100000004A
(1628870274.240833) can0 032#000000000000003A
(1628870274.271875) can0 03F#4702007F000D
(1628870274.271878) can0 125#F000000000001D
(1628870274.271880) can0 4AF#0040000800000000
(1628870274.271882) can0 12A#00000000000032
(1628870274.302882) can0 0B7#0000000000000000
(1628870274.302885) can0 037#000054FFFF0696
(1628870274.302918) can0 247#06008000000000
(1628870274.302921) can0 244#11000003FFFE005F
(1628870274.302922) can0 3D3#0000
(1628870274.366693) can0 037#00005400000698
(1628870274.397739) can0 0B7#0000000000000000
(1628870274.397742) can0 2F0#1000FA00
(1628870274.397744) can0 032#000000000000003A
(1628870274.397745) can0 128#0000100000000041
(1628870274.428711) can0 12A#00000000000032
(1628870274.428714) can0 0A4#40000000000000EC
(1628870274.428716) can0 0BC#000011FE51FF0023
(1628870274.428717) can0 35C#00800000000000E7
(1628870274.492526) can0 0B7#0000000000000000
(1628870274.523513) can0 127#00100008000682D0
(1628870274.523515) can0 03F#4702007F000D
(1628870274.523549) can0 0A4#40000000000000EC
(1628870274.523552) can0 0BC#010011FE51FF0024
(1628870274.539656) can0 032#000000000000003A
(1628870274.539659) can0 0B4#000000006000001C
(1628870274.570574) can0 037#00005400000698
(1628870274.570576) can0 236#27FF050068
(1628870274.618687) can0 03F#4702007F000D
(1628870274.634582) can0 125#F000000000001D
(1628870274.634586) can0 0A4#40000000000000EC
(1628870274.666706) can0 037#00005400000698
(1628870274.666708) can0 247#06008000000000
(1628870274.666711) can0 0BC#000011FE51FF0023
(1628870274.666713) can0 244#1100000000010060
(1628870274.697677) can0 0B4#000000006000001C
(1628870274.697679) can0 245#000000004C
(1628870274.697681) can0 236#27FF050068
(1628870274.745705) can0 0B4#000000006000001C
(1628870274.776547) can0 128#0000100000000041
(1628870274.776550) can0 236#27FF050068
(1628870274.776552) can0 0A6#00000040000000EE
(1628870274.776554) can0 03F#4702007F000D
(1628870274.807651) can0 32D#00515F4C00000000
(1628870274.807653) can0 125#F000000000001D
(1628870274.807655) can0 037#000054FFFF0696
(1628870274.807657) can0 032#000000000000003A
(1628870274.871491) can0 0B4#000000006000001C
(1628870274.887544) can0 03F#4702007F000D
(1628870274.887547) can0 236#27FF050068
(1628870274.918589) can0 032#000000000000003A
(1628870274.918592) can0 0A6#00000040000000EE
(1628870274.918626) can0 35C#00800000000000E7
(1628870274.918628) can0 037#000054FFFF0696
(1628870274.949570) can0 499#D50042000000000F
(1628870274.949572) can0 128#0000100000000041
(1628870274.997572) can0 236#27FF050068
(1628870275.013198) can0 12D#7FFF7FFF7FFFFFAF
(1628870275.013201) can0 037#00005400000698
(1628870275.044379) can0 12E#7FFF7FFF7FFFB0
(1628870275.044382) can0 12F#FF7FFF7FFF7FFFB1
(1628870275.044385) can0 0A6#00000040000000EE
(1628870275.044386) can0 247#06008000000000
(1628870275.060337) can0 244#1100000200010062
(1628870275.060340) can0 024#0200020441F980EE
(1628870275.124286) can0 3A0#0071000000000029
(1628870275.140413) can0 12D#7FFF7FFF7FFFFFAF
(1628870275.140416) can0 12E#7FFF7FFF7FFFB0
(1628870275.171592) can0 12F#FF7FFF7FFF7FFFB1
(1628870275.171595) can0 03F#4702007F000D
(1628870275.171597) can0 125#F000000000001D
(1628870275.171599) can0 49D#848401BE7CF60700
(1628870275.187595) can0 0B7#0000000000000000
(1628870275.187598) can0 032#000000000000003A
(1628870275.251566) can0 12A#00000000000032
(1628870275.282319) can0 037#00005400000698
(1628870275.282322) can0 330#0000000040000100
(1628870275.282324) can0 0B7#0000000000000000
(1628870275.282326) can0 12D#7FFF7FFF7FFFFFAF
(1628870275.313539) can0 12E#7FFF7FFF7FFFB0
(1628870275.313542) can0 12F#FF7FFF7FFF7FFFB1
(1628870275.313574) can0 128#0000100000000041
(1628870275.313577) can0 3CB#00000000161601
(1628870275.377531) can0 6C0#E40080A100010000
(1628870275.408525) can0 127#00100008000681CF
(1628870275.408528) can0 0B7#0000000000000000
(1628870275.408530) can0 12A#00000000000032
(1628870275.408532) can0 03F#4702007F000D
(1628870275.424523) can0 3C8#002C00000214192E
(1628870275.424525) can0 0A4#40000000000000EC
(1628870275.455471) can0 12D#7FFF7FFF7FFFFFAF
(1628870275.455475) can0 12E#7FFF7FFF7FFFB0
(1628870275.503408) can0 03F#4702007F000D
(1628870275.534458) can0 0B7#0000000000000000
(1628870275.534461) can0 125#F000000000001D
(1628870275.534495) can0 032#000000000000003A
(1628870275.534497) can0 037#00005400000698
(1628870275.565461) can0 0A4#40000000000000EC
(1628870275.565463) can0 12A#00000000000032
(1628870275.565465) can0 0BC#000011FE51FF0023
(1628870275.565467) can0 127#00100008000682D0
(1628870275.629435) can0 3CF#10001A0809
(1628870275.660430) can0 0A4#40000000000000EC
(1628870275.660433) can0 0BC#000011FE51FF0023
(1628870275.660434) can0 128#0000100000000041
(1628870275.660436) can0 032#000000000000003A
(1628870275.675915) can0 247#06008000000000
(1628870275.675917) can0 03F#4702007F000D
(1628870275.708296) can0 0A6#00000040000000EE
(1628870275.708299) can0 125#F000000000001D
(1628870275.756285) can0 0A4#40000000000000EC
(1628870275.787377) can0 0BC#000011FE51FF0023
(1628870275.787380) can0 3CB#01FF0000161601
(1628870275.787382) can0 03F#4702007F000D
(1628870275.787384) can0 0A6#00000040000000EE
(1628870275.803315) can0 037#000054FFFF0696
(1628870275.803317) can0 3CF#10001A0809
(1628870275.834328) can0 032#000000100000004A
(1628870275.834330) can0 128#0000100000000041
(1628870275.834332) can0 12A#00000000000032
(1628870275.882187) can0 037#00005400000698
(1628870275.898366) can0 49C#0000010000002E06
(1628870275.898370) can0 0A6#00000040000000EE
(1628870275.929334) can0 3CA#0020000000F3
(1628870275.929337) can0 127#00100008000682D0
(1628870275.929370) can0 03F#4702007F000D
(1628870275.929372) can0 032#000000100000004A
(1628870275.960201) can0 49A#00109E341081CCC0
(1628870275.960203) can0 0B7#0000000000000000
(1628870276.008034) can0 0A6#00000040000000EE
(1628870276.024105) can0 128#0000100000000041
(1628870276.024107) can0 032#000000000000003A
(1628870276.055008) can0 247#06008000000000
(1628870276.055011) can0 03F#4702007F000D
(1628870276.055013) can0 125#F000000000001D
(1628870276.055015) can0 244#1100FFFEFFFF005A
(1628870276.086109) can0 245#000000004C
(1628870276.086112) can0 037#000054FFFF0696
(1628870276.134279) can0 03F#4702007F000D
(1628870276.150123) can0 12E#7FFF7FFF7FFFB0
(1628870276.150126) can0 12F#FF7FFF7FFF7FFFB1
(1628870276.181037) can0 1D3#0028000000000004
(1628870276.181039) can0 037#00005400000698
(1628870276.181041) can0 032#000000000000003A
(1628870276.181043) can0 2F0#1000FA00
(1628870276.212226) can0 0B7#0000000000000000
(1628870276.212229) can0 4A6#C6805A56575757FF
(1628870276.260243) can0 1D3#0028000000000004
(1628870276.275720) can0 12D#7FFF7FFF7FFFFFAF
(1628870276.275724) can0 12E#7FFF7FFF7FFFB0
(1628870276.307024) can0 12F#FF7FFF7FFF7FFFB1
(1628870276.307027) can0 127#00100008000681CF
(1628870276.307029) can0 0B7#0000000000000000
(1628870276.337837) can0 032#000000000000003A
(1628870276.337839) can0 03F#4702007F000D
(1628870276.337841) can0 0A4#40000000000000EC
(1628870276.385970) can0 3CA#0020000000F3
(1628870276.401900) can0 12A#00000000000032
(1628870276.401903) can0 247#06008000000000
(1628870276.433078) can0 03F#4702007F000D
(1628870276.433081) can0 125#F000000000001D
(1628870276.433083) can0 0B7#0000000000000000
(1628870276.433084) can0 1D3#0028000000000004
(1628870276.463948) can0 49A#00109E341081CCC0
(1628870276.463951) can0 244#11000001FFFF005E
(1628870276.512035) can0 0B7#0000000000000000
(1628870276.528055) can0 032#000000100000004A
(1628870276.528058) can0 037#000054FFFF0696
(1628870276.559051) can0 12A#00000000000032
(1628870276.559053) can0 1D3#0028000000000004
(1628870276.559055) can0 0A4#40000000000000EC
(1628870276.559057) can0 128#0000100000000041
(1628870276.575032) can0 0BC#000011FE51FF0023
(1628870276.575035) can0 12D#7FFF7FFF7FFFFFAF
(1628870276.638991) can0 127#00100008000682D0
(1628870276.669991) can0 032#000000000000003A
(1628870276.669994) can0 0A4#40000000000000EC
(1628870276.669997) can0 0BC#000011FE51FF0023
(1628870276.669999) can0 03F#4702007F000D
(1628870276.685856) can0 3E1#413C050200000070
(1628870276.685859) can0 1D3#0028000000000004
(1628870276.716888) can0 0B4#000000006000001C
(1628870276.716891) can0 12A#00000000000032
(1628870276.764966) can0 247#06008000000000
(1628870276.795920) can0 03F#4702007F000D
(1628870276.795923) can0 125#F000000000001D
(1628870276.795925) can0 244#1100FFFE0002005E
(1628870276.795926) can0 348#00020000002C0485
(1628870276.811989) can0 0A4#40000000000000EC
(1628870276.811992) can0 245#000000004C
(1628870276.843957) can0 0BC#000011FE51FF0023
(1628870276.843959) can0 037#00005400000698
(1628870276.891692) can0 0BC#000011FE51FF0023
(1628870276.922880) can0 348#00020000002C0485
(1628870276.922883) can0 0B4#000000006000001C
(1628870276.922884) can0 128#0000100000000041
(1628870276.922886) can0 236#27FF050068
(1628870276.953690) can0 0A6#00000040000000EE
(1628870276.953693) can0 03F#4702007F000D
(1628870276.953695) can0 125#F000000000001D
(1628870276.953696) can0 1D3#0028000000000004
(1628870277.017632) can0 032#000000000000003A
(1628870277.033609) can0 0B4#000000006000001C
(1628870277.033612) can0 236#27FF050068
(1628870277.064671) can0 0A6#00000040000000EE
(1628870277.064692) can0 03F#4702007F000D
(1628870277.064694) can0 3C8#002C00000214192E
(1628870277.064696) can0 348#00020000002C0485
(1628870277.095908) can0 037#00005400000698
(1628870277.095911) can0 1D3#0028000000000004
(1628870277.143915) can0 0A6#00000040000000EE
(1628870277.174800) can0 245#000000004C
(1628870277.174803) can0 037#000054FFFF0696
(1628870277.174806) can0 032#000000000000003A
(1628870277.174807) can0 348#00020000002C0485
(1628870277.205430) can0 127#00100008000681CF
(1628870277.205432) can0 0B7#0000000000000000
(1628870277.205435) can0 03F#4702007F000D
(1628870277.205437) can0 32D#00511F4C00000000
(1628870277.269394) can0 12D#7FFF7FFF7FFFFFAF
(1628870277.300902) can0 12E#7FFF7FFF7FFFB0
(1628870277.300905) can0 128#0000100000000041
(1628870277.300907) can0 12F#FF7FFF7FFF7FFFB1
(1628870277.300910) can0 1D2#990402AA028800AE
(1628870277.316876) can0 427#0000000000000000
(1628870277.316878) can0 03F#4702007F000D
(1628870277.347791) can0 032#000000000000003A
(1628870277.347793) can0 125#F000000000001D
(1628870277.395851) can0 12A#00000000000032
(1628870277.426619) can0 03F#4702007F000D
(1628870277.426622) can0 1D2#990402AD028B00B4
(1628870277.426624) can0 12D#7FFF7FFF7FFFFFAF
(1628870277.426626) can0 12E#7FFF7FFF7FFFB0
(1628870277.457621) can0 037#000054FFFF0696
(1628870277.457623) can0 12F#FF7FFF7FFF7FFFB1
(1628870277.457625) can0 0B7#0000000000000000
(1628870277.457627) can0 024#0200020441F880ED
(1628870277.521649) can0 2CB#3A249600C6
(1628870277.537340) can0 2DF#0000000000000000
(1628870277.537342) can0 12A#00000000000032
(1628870277.568690) can0 0B7#0000000000000000
(1628870277.568692) can0 127#00100008000681CF
(1628870277.568695) can0 1D2#990402AA028800AE
(1628870277.568697) can0 400#0000000000000000
(1628870277.599566) can0 3A0#007B000000000027
(1628870277.599569) can0 12D#7FFF7FFF7FFFFFAF
(1628870277.647609) can0 128#0000100000000041
(1628870277.679677) can0 0B7#0000000000000000
(1628870277.679680) can0 2CB#3A249600C6
(1628870277.679682) can0 032#000000000000003A
(1628870277.679684) can0 03F#4702007F000D
(1628870277.710529) can0 32D#00511F4C00000000
(1628870277.710532) can0 125#F000000000001D
(1628870277.710534) can0 3B6#8072021000020300
(1628870277.710536) can0 1D2#990402AA028800AE
(1628870277.774631) can0 037#000054FFFF0696
(1628870277.805640) can0 2CB#3A249600C6
(1628870277.805643) can0 0A4#40000000000000EC
(1628870277.805645) can0 0BC#000011FE51FF0023
(1628870277.805646) can0 2F0#1000FA00
(1628870277.836618) can0 032#000000000000003A
(1628870277.836621) can0 247#06008000000000
(1628870277.836623) can0 128#0000100000000041
(1628870277.836625) can0 1D2#990402AD028B00B4
(1628870277.900599) can0 3F8#0000017701FF0000
(1628870277.916601) can0 3FA#FF
(1628870277.916604) can0 024#0200020341F980ED
(1628870277.947486) can0 0A4#40000000000000EC
(1628870277.947489) can0 0BC#000011FE51FF0023
(1628870277.947522) can0 127#00100008000682D0
(1628870277.947524) can0 2CB#3A249600C6
(1628870277.947526) can0 03F#4702007F000D
(1628870277.963371) can0 0A6#00000040000000EE
(1628870277.963374) can0 635#8300000010000000
(1628870278.027312) can0 3A0#007D000000000026
(1628870278.059317) can0 125#F000000000001D
(1628870278.059320) can0 590#0000000000002A00
(1628870278.059322) can0 0A6#00000040000000EE
(1628870278.059323) can0 037#00005400000698
(1628870278.091180) can0 2CB#3A249600C6
(1628870278.091183) can0 127#00100008000682D0
(1628870278.091185) can0 1D2#990402AA028800AE
(1628870278.091186) can0 032#000000000000003A
(1628870278.155366) can0 128#0000100000000041
(1628870278.171550) can0 244#1100FFFF0002005F
(1628870278.171553) can0 245#000000004C
(1628870278.202426) can0 2CB#3A249600C6
(1628870278.202429) can0 03F#4702007F000D
(1628870278.202431) can0 125#F000000000001D
(1628870278.202433) can0 49B#00A01B0000080000
(1628870278.233532) can0 0B7#0000000000000000
(1628870278.233535) can0 1D2#990402AA028800AE
(1628870278.281539) can0 032#000000000000003A
(1628870278.312526) can0 0B7#0000000000000000
(1628870278.312529) can0 037#000054FFFF0696
(1628870278.312530) can0 2CB#3A249600C6
(1628870278.312532) can0 128#0000100000000041
(1628870278.343526) can0 35C#00800000000000E7
(1628870278.343528) can0 0A4#40000000000000EC
(1628870278.343561) can0 1D2#990402AD028B00B4
(1628870278.343563) can0 0BC#000011FE51FF0023
(1628870278.407454) can0 0B7#0000000000000000
(1628870278.438516) can0 127#00100008000681CF
(1628870278.438518) can0 032#000000000000003A
(1628870278.438521) can0 2CB#3A249600C6
(1628870278.438523) can0 0A4#40000000000000EC
(1628870278.454374) can0 03F#4702007F000D
(1628870278.454377) can0 0BC#000011FE51FF0023
(1628870278.454378) can0 33D#0042
(1628870278.484936) can0 0B4#000000006000001C
(1628870278.484939) can0 1D2#990402AD028B00B4
(1628870278.533493) can0 2C9#000DA70288000011
(1628870278.549480) can0 12D#7FFF7FFF7FFFFFAF
(1628870278.549482) can0 12E#7FFF7FFF7FFFB0
(1628870278.581479) can0 03F#4702007F000D
(1628870278.581482) can0 12F#FF7FFF7FFF7FFFB1
(1628870278.581484) can0 125#F000000000001D
(1628870278.581486) can0 0A4#40000000000000EC
(1628870278.612451) can0 0BC#000011FE51FF0023
(1628870278.612454) can0 032#000000000000003A
(1628870278.660365) can0 037#000054FFFF0696
(1628870278.676474) can0 2C9#000DA7028B000014
(1628870278.676477) can0 0A4#40000000000000EC
(1628870278.707448) can0 0BC#000011FE51FF0023
(1628870278.707451) can0 33D#0042
(1628870278.707453) can0 12D#7FFF7FFF7FFFFFAF
(1628870278.707454) can0 0B4#000000006000001C
(1628870278.738390) can0 12E#7FFF7FFF7FFFB0
(1628870278.738393) can0 12F#FF7FFF7FFF7FFFB1
(1628870278.786416) can0 127#00100008000682D0
(1628870278.802420) can0 2C9#000DA7028B000014
(1628870278.802423) can0 0B4#000000006000001C
(1628870278.833415) can0 12A#00000000000032
(1628870278.833417) can0 236#27FF050068
(1628870278.833420) can0 35C#00800000000000E7
(1628870278.833422) can0 03F#4702007F000D
(1628870278.849422) can0 3C8#002C00000214182D
(1628870278.849424) can0 0A6#00000040000000EE
(1628870278.913371) can0 0A6#00000040000000EE
(1628870278.929382) can0 032#000000100000004A
(1628870278.929384) can0 037#00005400000698
(1628870278.961260) can0 2C9#000DA70288000011
(1628870278.961263) can0 12A#00000000000032
(1628870278.961294) can0 127#00100008000681CF
(1628870278.961296) can0 0B7#0000000000000000
(1628870278.993326) can0 12D#7FFF7FFF7FFFFFAF
(1628870278.993329) can0 12E#7FFF7FFF7FFFB0
(1628870279.040976) can0 2C9#000DA70288000011
(1628870279.072156) can0 032#000000000000003A
(1628870279.072158) can0 03F#4702007F000D
(1628870279.072160) can0 0B7#0000000000000000
(1628870279.072162) can0 125#F000000000001D
(1628870279.088026) can0 12A#00000000000032
(1628870279.088029) can0 037#00005400000698
(1628870279.120181) can0 2CB#3A249600C6
(1628870279.120184) can0 12D#7FFF7FFF7FFFFFAF
(1628870279.168184) can0 0B7#0000000000000000
(1628870279.199288) can0 037#000054FFFF0696
(1628870279.199291) can0 244#1100FFFFFFFF005B
(1628870279.199292) can0 3CF#10001A0809
(1628870279.199294) can0 2C9#000DA7028B000014
(1628870279.230124) can0 3CB#01FF0000161601
(1628870279.230126) can0 032#000000100000004A
(1628870279.230128) can0 245#000000004C
(1628870279.230130) can0 128#0000100000000041
(1628870279.294132) can0 127#00100008000681CF
(1628870279.325210) can0 2C9#000DA70288000011
(1628870279.325212) can0 0A4#40000000000000EC
(1628870279.325214) can0 330#0000000040000100
(1628870279.325216) can0 0BC#000011FE51FF0023
(1628870279.356106) can0 03F#4702007F000D
(1628870279.356109) can0 3CA#0020000000F3
(1628870279.356140) can0 032#000000000000003A
(1628870279.356142) can0 0A6#00000040000000EE
(1628870279.420121) can0 03F#4702007F000D
(1628870279.451089) can0 125#F000000000001D
(1628870279.451091) can0 0A4#40000000000000EC
(1628870279.451093) can0 0BC#000011FE51FF0023
(1628870279.451094) can0 037#00005400000698
(1628870279.481997) can0 2C9#000DA70288000011
(1628870279.482000) can0 0A6#00000040000000EE
(1628870279.482002) can0 4AD#46000B097A24527F
(1628870279.482004) can0 127#00100008000682D0
(1628870279.545967) can0 245#000000004C
(1628870279.576967) can0 0BC#000011FE51FF0023
(1628870279.576969) can0 2F0#1000FA00
(1628870279.576997) can0 128#0000100000000041
(1628870279.576999) can0 2C9#000DA70288000011
(1628870279.608041) can0 0A6#00000040000000EE
(1628870279.608043) can0 32D#00519F4C00000000
(1628870279.608045) can0 03F#4702007F000D
(1628870279.608047) can0 125#F000000000001D
(1628870279.624016) can0 037#00005400000698
(1628870279.672010) can0 3CB#00000000161601
(1628870279.702900) can0 032#000000000000003A
(1628870279.702902) can0 03F#4702007F000D
(1628870279.702904) can0 0A6#00000040000000EE
(1628870279.702905) can0 037#00005400000698
(1628870279.734011) can0 2C9#000DA70288000011
(1628870279.734014) can0 2F0#1000FA00
(1628870279.734016) can0 128#0000100000000041
(1628870279.734018) can0 0B7#0000000000000000
(1628870279.749617) can0 2CB#3A249600C6
(1628870279.797988) can0 12D#7FFF7FFF7FFFFFAF
(1628870279.814001) can0 12E#7FFF7FFF7FFFB0
(1628870279.814003) can0 037#00005400000698
(1628870279.844981) can0 0A6#00000040000000EE
(1628870279.844984) can0 12F#FF7FFF7FFF7FFFB1
(1628870279.844986) can0 3CA#0020000000F3
(1628870279.844988) can0 024#0200020441F880ED
(1628870279.860951) can0 032#000000100000004A
(1628870279.860954) can0 127#00100008000681CF
(1628870279.924890) can0 128#0000100000000041
(1628870279.940907) can0 12D#7FFF7FFF7FFFFFAF
(1628870279.940910) can0 12E#7FFF7FFF7FFFB0
(1628870279.971821) can0 12F#FF7FFF7FFF7FFFB1
(1628870279.971824) can0 3A0#007F000000000026
(1628870279.971853) can0 03F#4702007F000D
(1628870279.971854) can0 125#F000000000001D
(1628870279.987891) can0 0B7#0000000000000000
(1628870279.987894) can0 032#000000000000003A
(1628870280.051731) can0 12A#00000000000032
(1628870280.082796) can0 037#000054FFFE0695
(1628870280.082799) can0 409#0000000012
(1628870280.082801) can0 0B7#0000000000000000
(1628870280.082803) can0 12D#7FFF7FFF7FFFFFAF
(1628870280.113793) can0 12E#7FFF7FFF7FFFB0
(1628870280.113796) can0 12F#FF7FFF7FFF7FFFB1
(1628870280.113797) can0 128#0000100000000041
(1628870280.113799) can0 2C9#000DA7028E000017
(1628870280.177654) can0 032#000000000000003A
(1628870280.193918) can0 0B7#0000000000000000
(1628870280.193921) can0 127#00100008000681CF
(1628870280.224780) can0 247#06008000000000
(1628870280.224783) can0 12A#00000000000032
(1628870280.224785) can0 6C0#E40080A100010000
(1628870280.224787) can0 244#1100FFFDFFFC0056
(1628870280.240892) can0 03F#4702007F000D
(1628870280.240895) can0 0A4#40000000000000EC
(1628870280.304864) can0 03F#4702007F000D
(1628870280.320886) can0 125#F000000000001D
(1628870280.320889) can0 032#000000100000004A
(1628870280.351856) can0 420#00000000FEFF80A9
(1628870280.351859) can0 0A4#40000000000000EC
(1628870280.351861) can0 037#00005400000698
(1628870280.351863) can0 0BC#000011FE51FF0023
(1628870280.382827) can0 12A#00000000000032
(1628870280.382829) can0 0B4#000000006000001C
(1628870280.430827) can0 0A4#40000000000000EC
(1628870280.461378) can0 0BC#000011FE51FF0023
(1628870280.461382) can0 0B4#000000006000001C
(1628870280.461383) can0 128#0000100000000041
(1628870280.461385) can0 236#27FF040067
(1628870280.477776) can0 032#000000000000003A
(1628870280.477779) can0 0A6#00000040000000EE
(1628870280.509756) can0 03F#4702007F000D
(1628870280.509758) can0 125#F000000000001D
(1628870280.557793) can0 0B4#000000006000001C
(1628870280.573745) can0 244#1100000000040063
(1628870280.573748) can0 236#27FF040067
(1628870280.604811) can0 03F#4702007F000D
(1628870280.604813) can0 3C8#002C00000214182D
(1628870280.604815) can0 245#000000004C
(1628870280.604818) can0 0A6#00000040000000EE
(1628870280.620788) can0 4C1#0100000000000000
(1628870280.620790) can0 037#00005400000698
(1628870280.684761) can0 0A6#00000040000000EE
(1628870280.715707) can0 127#00100008000681CF
(1628870280.715710) can0 0B7#0000000000000000
(1628870280.715711) can0 03F#4702007F000D
(1628870280.715713) can0 032#000000000000003A
(1628870280.731775) can0 3C8#002C00000214182D
(1628870280.731778) can0 037#00005400000698
(1628870280.762738) can0 12A#00000000000032
(1628870280.762741) can0 2C9#000DA70288000011
(1628870280.810753) can0 4D0#1000000000000000
(1628870280.826762) can0 03F#4702007F000D
(1628870280.826765) can0 125#F000000000001D
(1628870280.858747) can0 0B7#0000000000000000
(1628870280.858750) can0 037#00005400000698
(1628870280.858751) can0 247#06008000000000
(1628870280.858753) can0 244#110000000000005F
(1628870280.889218) can0 0A4#40000000000000EC
(1628870280.889220) can0 032#000000000000003A
(1628870280.937685) can0 032#000000000000003A
(1628870280.953698) can0 037#000054FFFF0696
(1628870280.953702) can0 0B7#0000000000000000
(1628870280.984686) can0 4A6#46805A56575757FF
(1628870280.984688) can0 128#0000100000000041
(1628870280.984728) can0 399#0000103C0000023C
(1628870280.984730) can0 0A4#40000000000000EC
(1628870281.015265) can0 0BC#000011FE51FF0023
(1628870281.015268) can0 03F#4702007F000D
(1628870281.063359) can0 127#00100008000682D0
(1628870281.079707) can0 0B7#0000000000000000
(1628870281.079710) can0 032#000000100000004A
(1628870281.110546) can0 03F#4702007F000D
(1628870281.110548) can0 0A4#40000000000000EC
(1628870281.110550) can0 0BC#000011FE51FF0023
(1628870281.110552) can0 037#000054FFFF0696
(1628870281.141642) can0 0A6#00000040000000EE
(1628870281.141644) can0 128#0000100000000041
(1628870281.189622) can0 03F#4702007F000D
(1628870281.221656) can0 0B7#0000000000000000
(1628870281.221659) can0 125#F000000000001D
(1628870281.221661) can0 12D#7FFF7FFF7FFFFFAF
(1628870281.221663) can0 12E#7FFF7FFF7FFFB0
(1628870281.252539) can0 12F#FF7FFF7FFF7FFFB1
(1628870281.252542) can0 037#00005400000698
(1628870281.252543) can0 247#06008000000000
(1628870281.252545) can0 0A4#40000000000000EC
(1628870281.316509) can0 2F0#1000FA00
(1628870281.347595) can0 12A#00000000000032
(1628870281.347597) can0 589#0000000000000000
(1628870281.347599) can0 0A4#40000000000000EC
(1628870281.347601) can0 0BC#000011FE51FF0023
(1628870281.378396) can0 128#0000100000000041
(1628870281.378399) can0 330#0000000040000100
(1628870281.378429) can0 12D#7FFF7FFF7FFFFFAF
(1628870281.378432) can0 12E#7FFF7FFF7FFFB0
(1628870281.442478) can0 0BC#000011FE51FF0023
(1628870281.474261) can0 03F#4702007F000D
(1628870281.474264) can0 3F9#941C56420000004C
(1628870281.474265) can0 12A#00000000000032
(1628870281.474267) can0 0A6#00000040000000EE
(1628870281.506260) can0 63B#1600054800004EDC
(1628870281.506263) can0 037#000054FFFE0695
(1628870281.506265) can0 12D#7FFF7FFF7FFFFFAF
(1628870281.506267) can0 12E#7FFF7FFF7FFFB0
(1628870281.570225) can0 0A6#00000040000000EE
(1628870281.585918) can0 244#1100000100020062
(1628870281.585921) can0 127#00100008000682D0
(1628870281.617315) can0 245#000000004C
(1628870281.617317) can0 12A#00000000000032
(1628870281.617319) can0 03F#4702007F000D
(1628870281.617321) can0 12D#7FFF7FFF7FFFFFAF
(1628870281.648265) can0 12E#7FFF7FFF7FFFB0
(1628870281.648267) can0 12F#FF7FFF7FFF7FFFB1
(1628870281.696153) can0 03F#4702007F000D
(1628870281.727192) can0 125#F000000000001D
(1628870281.727196) can0 032#000000000000003A
(1628870281.727197) can0 35C#00800000000000E7
(1628870281.727199) can0 037#000054FFFF0696
(1628870281.758191) can0 12A#00000000000032
(1628870281.758194) can0 0B7#0000000000000000
(1628870281.758196) can0 024#0200020341F880EC
(1628870281.758197) can0 3F8#0000017B01FF0000
(1628870281.822111) can0 037#00005400000698
(1628870281.853070) can0 0B7#0000000000000000
(1628870281.853073) can0 128#0000100000000041
(1628870281.853074) can0 032#000000000000003A
(1628870281.853076) can0 03F#4702007F000D
(1628870281.883964) can0 0A4#40000000000000EC
(1628870281.883966) can0 125#F000000000001D
(1628870281.883968) can0 12A#00000000000032
(1628870281.883970) can0 247#06008000000000
(1628870281.947949) can0 244#11000000FFFF005D
(1628870281.963987) can0 127#00100008000681CF
(1628870281.963990) can0 245#000000004C
(1628870281.994991) can0 0B7#0000000000000000
(1628870281.994994) can0 32D#00511F4C00000000
(1628870281.995025) can0 03F#4702007F000D
(1628870281.995027) can0 0A4#40000000000000EC
(1628870282.010569) can0 0BC#000011FE51FF0023
(1628870282.010571) can0 037#00005400000698
(1628870282.074782) can0 125#F000000000001D
(1628870282.090842) can0 0B7#0000000000000000
(1628870282.090845) can0 037#000054FFFF0696
(1628870282.121891) can0 0A4#40000000000000EC
(1628870282.121893) can0 0BC#000011FE51FF0023
(1628870282.121895) can0 127#00100008000681CF
(1628870282.121897) can0 0B4#000000006000001C
(1628870282.152870) can0 3CB#01FF0000161601
(1628870282.152873) can0 610#20000064D0FFFD40
(1628870282.200843) can0 032#000000000000003A
(1628870282.216925) can0 0A4#40000000000000EC
(1628870282.216928) can0 128#0000100000000041
(1628870282.247928) can0 0BC#000011FE51FF0023
(1628870282.247931) can0 0B4#000000006000001C
(1628870282.247934) can0 03F#4702007F000D
(1628870282.247935) can0 236#27FF040067
(1628870282.263893) can0 125#F000000000001D
(1628870282.263895) can0 247#06008000000000
(1628870282.327744) can0 0BC#000011FE51FF0023
(1628870282.358543) can0 03F#4702007F000D
(1628870282.358546) can0 3C8#002C00000214182D
(1628870282.358547) can0 0B4#000000006000001C
(1628870282.358549) can0 3A0#007D000000000029
(1628870282.390556) can0 236#27FF040067
(1628870282.390559) can0 032#000000000000003A
(1628870282.390590) can0 0A6#00000040000000EE
(1628870282.390592) can0 037#00005400000698
(1628870282.454448) can0 236#27FF040067
(1628870282.470466) can0 12D#7FFF7FFF7FFFFFAF
(1628870282.470469) can0 12E#7FFF7FFF7FFFB0
(1628870282.502614) can0 12F#FF7FFF7FFF7FFFB1
(1628870282.502617) can0 0A6#00000040000000EE
(1628870282.502619) can0 127#00100008000681CF
(1628870282.502620) can0 032#000000000000003A
(1628870282.518489) can0 03F#4702007F000D
(1628870282.518492) can0 3C8#002C00000214182D
(1628870282.582440) can0 125#F000000000001D
(1628870282.613443) can0 247#06008000000000
(1628870282.613446) can0 12D#7FFF7FFF7FFFFFAF
(1628870282.613478) can0 12E#7FFF7FFF7FFFB0
(1628870282.613480) can0 12F#FF7FFF7FFF7FFFB1
(1628870282.644496) can0 244#1100000100020062
(1628870282.644498) can0 037#00005400000698
(1628870282.644500) can0 0B7#0000000000000000
(1628870282.644502) can0 245#000000004C
(1628870282.708415) can0 3CF#10001A0809
(1628870282.724398) can0 12A#00000000000032
(1628870282.724401) can0 3CA#0020000000F3
(1628870282.755407) can0 0B7#0000000000000000
(1628870282.755409) can0 128#0000100000000041
(1628870282.755411) can0 12D#7FFF7FFF7FFFFFAF
(1628870282.755413) can0 12E#7FFF7FFF7FFFB0
(1628870282.771166) can0 12F#FF7FFF7FFF7FFFB1
(1628870282.771168) can0 03F#4702007F000D
(1628870282.771170) can0 125#F000000000001D
(1628870282.835319) can0 03F#4702007F000D
(1628870282.866305) can0 12A#00000000000032
(1628870282.866307) can0 0A4#40000000000000EC
(1628870282.866309) can0 037#000054FFFE0695
(1628870282.866312) can0 0BC#000011FE51FF0023
(1628870282.897150) can0 12D#7FFF7FFF7FFFFFAF
(1628870282.897154) can0 12E#7FFF7FFF7FFFB0
(1628870282.897155) can0 12F#FF7FFF7FFF7FFFB1
(1628870282.897157) can0 3CF#10001A0809
(1628870282.961228) can0 037#000054FFFF0696
(1628870282.977214) can0 245#000000004C
(1628870282.977217) can0 032#000000000000003A
(1628870282.993191) can0 0A4#40000000000000EC
(1628870282.993194) can0 0BC#000011FE51FF0023
(1628870283.023956) can0 127#00100008000681CF
(1628870283.023959) can0 12A#00000000000032
(1628870283.023961) can0 0A6#00000040000000EE
(1628870283.023962) can0 12D#7FFF7FFF7FFFFFAF
(1628870283.087883) can0 0BC#000011FE51FF0023
(1628870283.104104) can0 032#000000000000003A
(1628870283.104107) can0 03F#4702007F000D
(1628870283.135050) can0 125#F000000000001D
(1628870283.135053) can0 0A6#00000040000000EE
(1628870283.135055) can0 037#000054FFFF0696
(1628870283.135057) can0 12A#00000000000032
(1628870283.166003) can0 12D#7FFF7FFF7FFFFFAF
(1628870283.166006) can0 12E#7FFF7FFF7FFFB0
(1628870283.214005) can0 1D3#00280000FF000003
(1628870283.230032) can0 0A6#00000040000000EE
(1628870283.230034) can0 037#00005400000698
(1628870283.261043) can0 4AE#FFFD80D308015A8B
(1628870283.261046) can0 2F0#1000FA00
(1628870283.261047) can0 032#000000000000003A
(1628870283.261049) can0 128#0000100000000041
(1628870283.277058) can0 247#06008000000000
(1628870283.277061) can0 244#1100FFFC0000005A
(1628870283.340957) can0 0A6#00000040000000EE
(1628870283.356808) can0 127#00100008000681CF
(1628870283.356811) can0 1D3#00280000FF000003
(1628870283.387764) can0 03F#4702007F000D
(1628870283.387767) can0 620#10000000B0000810
(1628870283.387768) can0 0B7#0000000000000000
(1628870283.387770) can0 032#000000100000004A
(1628870283.403792) can0 037#00005400000698
(1628870283.403795) can0 2F0#1000FA00
(1628870283.419732) can0 12A#00000000000032
(1628870283.467740) can0 1D3#0028000000000004
(1628870283.498662) can0 037#000054FFFF0696
(1628870283.498665) can0 0B7#0000000000000000
(1628870283.498667) can0 127#00100008000681CF
(1628870283.498668) can0 0A4#40000000000000EC
(1628870283.529288) can0 0BC#000011FE51FF0023
(1628870283.529291) can0 032#000000000000003A
(1628870283.529293) can0 0B4#000000006000001C
(1628870283.529295) can0 03F#4702007F000D
(1628870283.593723) can0 032#000000100000004A
(1628870283.609809) can0 0B7#0000000000000000
(1628870283.609811) can0 128#0000100000000041
(1628870283.641791) can0 1D3#0028000000000004
(1628870283.641794) can0 247#06008000000000
(1628870283.641796) can0 244#11000000FFFF005D
(1628870283.641798) can0 245#000000004C
(1628870283.672753) can0 03F#4702007F000D
(1628870283.672756) can0 0A4#40000000000000EC
(1628870283.720709) can0 03F#4702007F000D
(1628870283.751777) can0 032#000000100000004A
(1628870283.751780) can0 1D3#0028000000000004
(1628870283.751782) can0 0A4#40000000000000EC
(1628870283.751784) can0 037#00005400000698
(1628870283.767647) can0 0BC#000011FE51FF0023
(1628870283.767650) can0 0B4#000000006000001C
(1628870283.798707) can0 330#0000000040000100
(1628870283.798710) can0 236#27FF040067
(1628870283.846726) can0 0A4#40000000000000EC
(1628870283.877720) can0 12D#7FFF7FFF7FFFFFAF
(1628870283.877723) can0 12E#7FFF7FFF7FFFB0
(1628870283.877726) can0 0BC#000011FE51FF0023
(1628870283.877728) can0 12F#FF7FFF7FFF7FFFB1
(1628870283.893264) can0 0B4#000000006000001C
(1628870283.893266) can0 127#00100008000682D0
(1628870283.924663) can0 1D3#0028000000000004
(1628870283.924666) can0 236#27FF040067
(1628870283.972665) can0 348#00020000002C0485
(1628870283.988354) can0 0BC#000011FE51FF0023
(1628870283.988357) can0 12A#00000000000032
(1628870284.019455) can0 0B4#000000006000001C
(1628870284.019458) can0 244#11000000FFFF005D
(1628870284.019490) can0 245#000000004C
(1628870284.019492) can0 236#27FF050068
(1628870284.035451) can0 03F#4702007F000D
(1628870284.035454) can0 12D#7FFF7FFF7FFFFFAF
(1628870284.099509) can0 0A6#00000040000000EE
(1628870284.130622) can0 037#000054FFFE0695
(1628870284.130625) can0 12A#00000000000032
(1628870284.130627) can0 024#0200020441F980EE
(1628870284.130629) can0 3F8#0000017901FF0000
(1628870284.161599) can0 12D#7FFF7FFF7FFFFFAF
(1628870284.161601) can0 128#0000100000000041
(1628870284.161603) can0 12E#7FFF7FFF7FFFB0
(1628870284.161606) can0 12F#FF7FFF7FFF7FFFB1
(1628870284.225563) can0 127#00100008000682D0
(1628870284.241591) can0 032#000000000000003A
(1628870284.241594) can0 348#00020000002C0485
(1628870284.272570) can0 12A#00000000000032
(1628870284.272573) can0 03F#4702007F000D
(1628870284.272575) can0 3C8#002C00000214182D
(1628870284.272576) can0 0B7#0000000000000000
(1628870284.303493) can0 1D3#0028000000000004
(1628870284.303497) can0 12D#7FFF7FFF7FFFFFAF
(1628870284.351533) can0 03F#4702007F000D
(1628870284.383557) can0 125#F000000000001D
(1628870284.383560) can0 348#00020000002C0485
(1628870284.383562) can0 037#00005400000698
(1628870284.383564) can0 032#000000000000003A
(1628870284.415537) can0 0B7#0000000000000000
(1628870284.415539) can0 12A#00000000000032
(1628870284.415571) can0 127#00100008000681CF
(1628870284.415573) can0 1D3#0028000000000004
(1628870284.479489) can0 128#0000100000000041
(1628870284.510501) can0 348#00020000002C0485
(1628870284.510504) can0 032#000000000000003A
(1628870284.510506) can0 0A4#40000000000000EC
(1628870284.526505) can0 0BC#000011FE51FF0023
(1628870284.526508) can0 03F#4702007F000D
(1628870284.526510) can0 125#F000000000001D
(1628870284.557319) can0 1D3#0028000000000004
(1628870284.557321) can0 12A#00000000000032
(1628870284.605356) can0 03F#4702007F000D
(1628870284.621314) can0 348#00020000002C0485
(1628870284.621317) can0 0A4#40000000000000EC
(1628870284.652348) can0 0BC#000011FE51FF0023
(1628870284.652351) can0 037#000054FFFE0695
(1628870284.652352) can0 4A8#0007200000014387
(1628870284.652354) can0 247#06008000000000
(1628870284.683324) can0 244#11000002FFFF005F
(1628870284.683327) can0 35C#00800000000000E7
(1628870284.731322) can0 037#000054FFFF0696
(1628870284.762339) can0 1D2#990402AA028800AE
(1628870284.762342) can0 0A4#40000000000000EC
(1628870284.762343) can0 3D3#0000
(1628870284.762345) can0 0BC#010011FE51FF0024
(1628870284.778341) can0 127#00100008000681CF
(1628870284.778343) can0 348#00020000002C0485
(1628870284.810291) can0 0A6#00000040000000EE
(1628870284.810294) can0 03F#4702007F000D
(1628870284.810296) can0 4AF#0040000800000000
(1628870284.858297) can0 032#000000000000003A
(1628870284.889235) can0 0F8#000000B500290000
(1628870284.889238) can0 03F#4702007F000D
(1628870284.889240) can0 498#500000B53900001E
(1628870284.889242) can0 125#F000000000001D
(1628870284.920281) can0 0A6#00000040000000EE
(1628870284.920283) can0 348#00020000002C0485
(1628870284.920286) can0 037#000054FFFE0695
(1628870284.920287) can0 127#00100008000682D0
(1628870284.984231) can0 0A6#00000040000000EE
(1628870285.000146) can0 037#00005400000698
(1628870285.000149) can0 1D2#990402AA028800AE
(1628870285.031003) can0 247#06008000000000
(1628870285.031006) can0 244#110000000000005F
(1628870285.031038) can0 032#000000000000003A
(1628870285.031040) can0 2F0#1000FA00
(1628870285.061914) can0 245#000000004C
(1628870285.061916) can0 128#0000100000000041
(1628870285.110051) can0 127#00100008000681CF
(1628870285.141175) can0 35C#00800000000000E7
(1628870285.141178) can0 12D#7FFF7FFF7FFFFFAF
(1628870285.141181) can0 12E#7FFF7FFF7FFFB0
(1628870285.141183) can0 12F#FF7FFF7FFF7FFFB1
(1628870285.172187) can0 1D2#990402AA028800AE
(1628870285.172190) can0 4C1#0100000000000000
(1628870285.172192) can0 03F#4702007F000D
(1628870285.172194) can0 032#000000000000003A
(1628870285.236159) can0 03F#4702007F000D
(1628870285.252160) can0 2CB#3A249600C6
(1628870285.252164) can0 125#F000000000001D
(1628870285.283247) can0 12A#00000000000032
(1628870285.283249) can0 4AF#0040000800000000
(1628870285.283251) can0 037#000054FFFF0696
(1628870285.283254) can0 1D2#990402AD028B00B4
(1628870285.314197) can0 12D#7FFF7FFF7FFFFFAF
(1628870285.314199) can0 12E#7FFF7FFF7FFFB0
(1628870285.362125) can0 032#000000000000003A
(1628870285.393072) can0 244#1100000000030062
(1628870285.393075) can0 2CB#3A249600C6
(1628870285.393077) can0 245#000000004C
(1628870285.393079) can0 12A#00000000000032
(1628870285.425083) can0 0B7#0000000000000000
(1628870285.425085) can0 128#0000100000000041
(1628870285.425117) can0 1D2#990402AA028800AE
(1628870285.425120) can0 12D#7FFF7FFF7FFFFFAF
(1628870285.489070) can0 0B7#0000000000000000
(1628870285.521091) can0 032#000000000000003A
(1628870285.521094) can0 03F#4702007F000D
(1628870285.521095) can0 2CB#3A249600C6
(1628870285.521097) can0 3CB#00000000161601
(1628870285.553093) can0 12A#00000000000032
(1628870285.553095) can0 037#00005400000698
(1628870285.553098) can0 1D2#990402AD028B00B4
(1628870285.553100) can0 0A4#40000000000000EC
(1628870285.617009) can0 0A4#40000000000000EC
(1628870285.633005) can0 2CB#3A249600C6
(1628870285.633008) can0 0BC#000011FE51FF0023
(1628870285.664094) can0 032#000000000000003A
(1628870285.664098) can0 127#00100008000681CF
(1628870285.664100) can0 0B4#000000006000001C
(1628870285.664101) can0 1D2#990402AD028B00B4
(1628870285.695015) can0 236#27FF050068
(1628870285.695019) can0 3CA#0020000000F3
(1628870285.743019) can0 0BC#000011FE51FF0023
(1628870285.759019) can0 0B4#000000006000001C
(1628870285.759022) can0 03F#4702007F000D
(1628870285.790061) can0 2CB#3A249600C6
(1628870285.790063) can0 125#F000000000001D
(1628870285.790065) can0 236#27FF050068
(1628870285.790066) can0 330#0000000040000100
(1628870285.805992) can0 0A6#00000040000000EE
(1628870285.805995) can0 032#000000100000004A
(1628870285.870011) can0 037#000054FFFF0696
(1628870285.885542) can0 236#27FF040067
(1628870285.885545) can0 499#D50041800000000F
(1628870285.916999) can0 0A6#00000040000000EE
(1628870285.917002) can0 2CB#3A249600C6
(1628870285.917003) can0 128#0000100000000041
(1628870285.917006) can0 1D2#990402AD028B00B4
(1628870285.947979) can0 032#000000000000003A
(1628870285.947982) can0 03F#4702007F000D
(1628870285.947984) can0 125#F000000000001D
(1628870285.995977) can0 127#00100008000682D0
(1628870286.011749) can0 0A6#00000040000000EE
(1628870286.011751) can0 247#06008000000000
(1628870286.042740) can0 03F#4702007F000D
(1628870286.042744) can0 3C8#002C00000214182D
(1628870286.042776) can0 244#1100FFFFFFFE005A
(1628870286.042778) can0 2CB#3A249600C6
(1628870286.073606) can0 245#000000004C
(1628870286.073609) can0 037#000054FFFF0696
(1628870286.073612) can0 024#0200020341F980ED
(1628870286.121865) can0 125#F000000000001D
(1628870286.137937) can0 3CA#0020000000F3
(1628870286.137940) can0 49D#8484023E7CF60700
(1628870286.168820) can0 032#000000000000003A
(1628870286.168822) can0 037#000054FFFF0696
(1628870286.168824) can0 2CB#3A249600C6
(1628870286.168826) can0 0B7#0000000000000000
(1628870286.199784) can0 127#00100008000681CF
(1628870286.199787) can0 1D2#990402AD028B00B4
(1628870286.247882) can0 12E#7FFF7FFF7FFFB0
(1628870286.278896) can0 12F#FF7FFF7FFF7FFFB1
(1628870286.278898) can0 2C9#000DA70288000011
(1628870286.278900) can0 128#0000100000000041
(1628870286.278902) can0 0B7#0000000000000000
(1628870286.309883) can0 032#000000000000003A
(1628870286.309886) can0 32D#00515F4C00000000
(1628870286.309888) can0 03F#4702007F000D
(1628870286.309890) can0 2CB#3A249600C6
(1628870286.373849) can0 247#06008000000000
(1628870286.389370) can0 2C9#000DA70288000011
(1628870286.389373) can0 0B7#0000000000000000
(1628870286.420853) can0 03F#4702007F000D
(1628870286.420856) can0 12D#7FFF7FFF7FFFFFAF
(1628870286.420859) can0 12E#7FFF7FFF7FFFB0
(1628870286.420860) can0 12F#FF7FFF7FFF7FFFB1
(1628870286.436841) can0 244#1100000100020062
(1628870286.436844) can0 245#000000004C
(1628870286.500711) can0 037#00005400000698
(1628870286.516838) can0 12A#00000000000032
(1628870286.516841) can0 024#0200020341F880EC
(1628870286.547806) can0 2C9#000DA70288000011
(1628870286.547808) can0 3F8#0000017A01FF0000
(1628870286.547810) can0 0A4#40000000000000EC
(1628870286.547812) can0 0BC#000011FE51FF0023
(1628870286.578645) can0 12D#7FFF7FFF7FFFFFAF
(1628870286.626683) can0 032#000000000000003A
(1628870286.642704) can0 128#0000100000000041
(1628870286.642707) can0 0A4#40000000000000EC
(1628870286.673684) can0 0BC#000011FE51FF0023
(1628870286.673687) can0 2C9#000DA70288000011
(1628870286.673688) can0 12A#00000000000032
(1628870286.673690) can0 03F#4702007F000D
(1628870286.704547) can0 125#F000000000001D
(1628870286.704550) can0 0A6#00000040000000EE
(1628870286.752655) can0 244#11000000FFFE005C
(1628870286.768611) can0 0BC#000011FE51FF0023
(1628870286.768614) can0 245#000000004C
(1628870286.799614) can0 032#000000000000003A
(1628870286.799617) can0 037#000054FFFF0696
(1628870286.799619) can0 2C9#000DA7028B000014
(1628870286.799622) can0 0A6#00000040000000EE
(1628870286.830556) can0 2F0#1000FA00
(1628870286.830559) can0 12A#00000000000032
(1628870286.878560) can0 49C#0000010000000006
(1628870286.894521) can0 0A6#00000040000000EE
(1628870286.894523) can0 612#2700000020EF084E
(1628870286.925557) can0 127#00100008000682D0
(1628870286.925559) can0 032#000000000000003A
(1628870286.925561) can0 2C9#000DA7028B000014
(1628870286.925564) can0 03F#4702007F000D
(1628870286.956530) can0 49A#00109E3410814CC0
(1628870286.956533) can0 12A#00000000000032
(1628870287.004103) can0 0A6#00000040000000EE
(1628870287.020313) can0 03F#4702007F000D
(1628870287.020316) can0 125#F000000000001D
(1628870287.051373) can0 037#00005400000698
(1628870287.051376) can0 2C9#000DA70288000011
(1628870287.051403) can0 032#000000000000003A
(1628870287.051405) can0 247#06008000000000
(1628870287.067288) can0 0B7#0000000000000000
(1628870287.067290) can0 127#00100008000682D0
(1628870287.131400) can0 037#000054FFFF0696
(1628870287.162458) can0 3A0#006E00000000002B
(1628870287.162460) can0 128#0000100000000041
(1628870287.162462) can0 0B7#0000000000000000
(1628870287.162463) can0 2C9#000DA70288000011
(1628870287.178388) can0 03F#4702007F000D
(1628870287.178390) can0 3E1#413C050200000070
(1628870287.209358) can0 125#F000000000001D
(1628870287.209361) can0 032#000000100000004A
(1628870287.257356) can0 127#00100008000681CF
(1628870287.288450) can0 032#000000000000003A
(1628870287.288452) can0 0B7#0000000000000000
(1628870287.288454) can0 03F#4702007F000D
(1628870287.288456) can0 037#00005400000698
(1628870287.304438) can0 2C9#000DA70288000011
(1628870287.304441) can0 0A4#40000000000000EC
(1628870287.335508) can0 0BC#000011FE51FF0023
(1628870287.335511) can0 0B4#000000006000001C
(1628870287.383272) can0 125#F000000000001D
(1628870287.414235) can0 49A#00109E3410814CC0
(1628870287.414238) can0 12D#7FFF7FFF7FFFFFAF
(1628870287.414240) can0 12E#7FFF7FFF7FFFB0
(1628870287.414242) can0 12F#FF7FFF7FFF7FFFB1
(1628870287.430414) can0 0B7#0000000000000000
(1628870287.430417) can0 6C0#E40080A100010000
(1628870287.460918) can0 037#00005400000698
(1628870287.460921) can0 032#000000000000003A
(1628870287.509170) can0 12A#00000000000032
(1628870287.541312) can0 0B7#0000000000000000
(1628870287.541314) can0 128#0000100000000041
(1628870287.541317) can0 12D#7FFF7FFF7FFFFFAF
(1628870287.541319) can0 12E#7FFF7FFF7FFFB0
(1628870287.573176) can0 12F#FF7FFF7FFF7FFFB1
(1628870287.573178) can0 0A4#40000000000000EC
(1628870287.573180) can0 0BC#000011FE51FF0023
(1628870287.573182) can0 03F#4702007F000D
(1628870287.637259) can0 03F#4702007F000D
(1628870287.669146) can0 12A#00000000000032
(1628870287.669150) can0 3C8#002C00000214182D
(1628870287.669179) can0 3E1#413C050200000070
(1628870287.669180) can0 0A4#40000000000000EC
(1628870287.700871) can0 0BC#000011FE51FF0023
(1628870287.700874) can0 037#00005400000698
(1628870287.700876) can0 12D#7FFF7FFF7FFFFFAF
(1628870287.700878) can0 0B4#000000006000001C
(1628870287.749197) can0 12A#00000000000032
(1628870287.780240) can0 0A4#40000000000000EC
(1628870287.780243) can0 348#00020000002C0485
(1628870287.780245) can0 0BC#000011FE51FF0023
(1628870287.780247) can0 32D#00519F4C00000000
(1628870287.796240) can0 12D#7FFF7FFF7FFFFFAF
(1628870287.796243) can0 03F#4702007F000D
(1628870287.827210) can0 12E#7FFF7FFF7FFFB0
(1628870287.827213) can0 12F#FF7FFF7FFF7FFFB1
(1628870287.875215) can0 125#F000000000001D
(1628870287.891132) can0 0A4#40000000000000EC
(1628870287.891135) can0 0BC#000011FE51FF0023
(1628870287.907132) can0 037#000054FFFF0696
(1628870287.907135) can0 12A#00000000000032
(1628870287.938209) can0 348#00020000002C0485
(1628870287.938213) can0 49C#0000010000000006
(1628870287.938214) can0 3D3#0000
(1628870287.938216) can0 0A6#00000040000000EE
(1628870288.001727) can0 032#000000000000003A
(1628870288.032957) can0 128#0000100000000041
(1628870288.032959) can0 0A6#00000040000000EE
(1628870288.032961) can0 348#00020000002C0485
(1628870288.032963) can0 12A#00000000000032
(1628870288.063943) can0 03F#4702007F000D
(1628870288.063947) can0 125#F000000000001D
(1628870288.063949) can0 12D#7FFF7FFF7FFFFFAF
(1628870288.063951) can0 12E#7FFF7FFF7FFFB0
(1628870288.128118) can0 1D2#990402AD028B00B4
(1628870288.159002) can0 0A6#00000040000000EE
(1628870288.159005) can0 03F#4702007F000D
(1628870288.159007) can0 3CA#0020000000F3
(1628870288.159008) can0 032#000000000000003A
(1628870288.190037) can0 037#000054FFFF0696
(1628870288.190040) can0 348#00020000002C0485
(1628870288.190042) can0 2F0#1000FA00
(1628870288.190044) can0 0B7#0000000000000000
(1628870288.206089) can0 12A#00000000000032
(1628870288.254087) can0 037#000054FFFF0696
(1628870288.285099) can0 1D2#990402AD028B00B4
(1628870288.285102) can0 127#00100008000681CF
(1628870288.285104) can0 348#00020000002C0485
(1628870288.285106) can0 0B7#0000000000000000
(1628870288.316005) can0 032#000000000000003A
(1628870288.316007) can0 247#06008000000000
(1628870288.316009) can0 03F#4702007F000D
(1628870288.316011) can0 244#11000002FFFD005D
(1628870288.380086) can0 128#0000100000000041
(1628870288.411076) can0 1D2#990402AA028800AE
(1628870288.411078) can0 0B7#0000000000000000
(1628870288.411080) can0 03F#4702007F000D
(1628870288.411082) can0 125#F000000000001D
(1628870288.442029) can0 49A#00109E3410814CC0
(1628870288.442032) can0 037#000054FFFF0696
(1628870288.442060) can0 348#00020000002C0485
(1628870288.442063) can0 0A4#40000000000000EC
(1628870288.505999) can0 2CB#3A249600C6
(1628870288.537074) can0 032#000000000000003A
(1628870288.537077) can0 0B7#0000000000000000
(1628870288.537078) can0 037#00005400000698
(1628870288.537080) can0 1D2#990402AA028800AE
(1628870288.553078) can0 128#0000100000000041
(1628870288.553080) can0 0A4#40000000000000EC
(1628870288.585027) can0 4C3#0300000000000000
(1628870288.585030) can0 348#00020000002C0485
(1628870288.633019) can0 2CB#3A249600C6
(1628870288.665022) can0 127#00100008000681CF
(1628870288.665025) can0 330#0000000040000100
(1628870288.665053) can0 032#000000000000003A
(1628870288.665055) can0 0A4#40000000000000EC
(1628870288.696912) can0 1D2#990402AA028800AE
(1628870288.696915) can0 247#06008000000000
(1628870288.696917) can0 0BC#000011FE51FF0023
(1628870288.696918) can0 03F#4702007F000D
(1628870288.760969) can0 2CB#3A249600C6
(1628870288.791958) can0 0BC#000011FE51FF0023
(1628870288.791960) can0 037#00005400000698
(1628870288.791962) can0 0B4#000000006000001C
(1628870288.791964) can0 032#000000000000003A
(1628870288.822891) can0 1D2#990402AA028800AE
(1628870288.822895) can0 236#27FF040067
(1628870288.822897) can0 0A6#00000040000000EE
(1628870288.822898) can0 4F8#3800000100000000
(1628870288.886907) can0 236#27FF040067
(1628870288.902373) can0 2CB#3A249600C6
(1628870288.902376) can0 128#0000100000000041
(1628870288.933964) can0 12D#7FFF7FFF7FFFFFAF
(1628870288.933967) can0 12E#7FFF7FFF7FFFB0
(1628870288.933969) can0 0A6#00000040000000EE
(1628870288.933971) can0 12F#FF7FFF7FFF7FFFB1
(1628870288.964907) can0 1D2#990402AD028B00B4
(1628870288.964910) can0 03F#4702007F000D
(1628870289.012716) can0 0A6#00000040000000EE
(1628870289.044719) can0 03F#4702007F000D
(1628870289.044722) can0 12A#00000000000032
(1628870289.044724) can0 244#110000000000005F
(1628870289.044727) can0 3C8#002C00000214182D
(1628870289.076798) can0 2CB#3A249600C6
(1628870289.076801) can0 245#000000004C
(1628870289.076802) can0 037#00005400000698
(1628870289.076804) can0 12D#7FFF7FFF7FFFFFAF
(1628870289.140849) can0 12A#00000000000032
(1628870289.156868) can0 2CB#3A249600C6
(1628870289.156871) can0 127#00100008000682D0
(1628870289.187748) can0 0B7#0000000000000000
(1628870289.187751) can0 1D2#990402AA028800AE
(1628870289.187753) can0 12D#7FFF7FFF7FFFFFAF
(1628870289.187755) can0 12E#7FFF7FFF7FFFB0
(1628870289.203847) can0 12F#FF7FFF7FFF7FFFB1
(1628870289.203850) can0 03F#4702007F000D
(1628870289.267788) can0 0B7#0000000000000000
(1628870289.283816) can0 2CB#3A249600C6
(1628870289.283819) can0 12A#00000000000032
(1628870289.314809) can0 037#00005400000698
(1628870289.314812) can0 1D2#990402AA028800AE
(1628870289.314813) can0 247#06008000000000
(1628870289.314815) can0 0A4#40000000000000EC
(1628870289.345763) can0 12D#7FFF7FFF7FFFFFAF
(1628870289.345767) can0 0BC#000011FE51FF0023
(1628870289.393760) can0 032#000000000000003A
(1628870289.424705) can0 2CB#3A249600C6
(1628870289.424708) can0 128#0000100000000041
(1628870289.424710) can0 0A4#40000000000000EC
(1628870289.424712) can0 0BC#000011FE51FF0023
(1628870289.455669) can0 12A#00000000000032
(1628870289.455672) can0 1D2#990402AA028800AE
(1628870289.455703) can0 03F#4702007F000D
(1628870289.455705) can0 125#F000000000001D
(1628870289.519514) can0 0A4#40000000000000EC
(1628870289.550718) can0 0BC#000011FE51FF0023
(1628870289.550721) can0 03F#4702007F000D
(1628870289.550723) can0 2CB#3A249600C6
(1628870289.550725) can0 032#000000000000003A
(1628870289.566721) can0 037#00005400000698
(1628870289.566724) can0 0A6#00000040000000EE
(1628870289.598611) can0 3CF#10001A0809
(1628870289.598614) can0 1D2#990402AA028800AE
(1628870289.677525) can0 620#10000000B0000810
(1628870289.677527) can0 247#06008000000000
(1628870289.677529) can0 0A6#00000040000000EE
(1628870289.677562) can0 2CB#3A249600C6
(1628870289.677564) can0 127#00100008000682D0
(1628870289.693501) can0 244#11000001FFFE005D
(1628870289.693504) can0 245#000000004C
(1628870289.709430) can0 032#000000000000003A
(1628870289.709433) can0 32D#00511F4C00000000
(1628870289.773511) can0 0A6#00000040000000EE
(1628870289.789526) can0 03F#4702007F000D
(1628870289.789529) can0 125#F000000000001D
(1628870289.820278) can0 2CB#3A249600C6
(1628870289.820282) can0 037#00005400000698
(1628870289.820285) can0 1D2#990402AA028800AE
(1628870289.820287) can0 032#000000000000003A
(1628870289.851428) can0 0B7#0000000000000000
(1628870289.851430) can0 127#00100008000682D0
(1628870289.851432) can0 12A#00000000000032
(1628870289.899397) can0 4A7#8050241111580A15
(1628870289.915368) can0 037#000054FFFF0696
(1628870289.915371) can0 024#0200020341F980ED
(1628870289.946438) can0 3F8#0000017A01FF0000
(1628870289.946440) can0 2F0#1000FA00
(1628870289.946442) can0 3FA#FF
(1628870289.946444) can0 2CB#3A249600C6
(1628870289.946445) can0 128#0000100000000041
(1628870289.977414) can0 0B7#0000000000000000
(1628870289.977417) can0 1D2#990402AD028B00B4
(1628870290.024979) can0 247#06008000000000
(1628870290.057019) can0 2C9#000DA70288000011
(1628870290.057021) can0 127#00100008000682D0
(1628870290.057023) can0 244#1100000100000060
(1628870290.057025) can0 032#000000000000003A
(1628870290.088402) can0 245#000000004C
(1628870290.088405) can0 35C#00800000000000E7
(1628870290.088406) can0 0B7#0000000000000000
(1628870290.088408) can0 03F#4702007F000D
(1628870290.152375) can0 12D#7FFF7FFF7FFFFFAF
(1628870290.168378) can0 12E#7FFF7FFF7FFFB0
(1628870290.168381) can0 03F#4702007F000D
(1628870290.199292) can0 125#F000000000001D
(1628870290.199295) can0 12F#FF7FFF7FFF7FFFB1
(1628870290.199297) can0 2C9#000DA70288000011
(1628870290.199299) can0 49B#00A01B0000080000
(1628870290.230214) can0 0B7#0000000000000000
(1628870290.230216) can0 037#00005400000698
(1628870290.278231) can0 0B7#0000000000000000
(1628870290.294380) can0 2C9#000DA70288000011
(1628870290.294383) can0 12D#7FFF7FFF7FFFFFAF
(1628870290.324984) can0 12E#7FFF7FFF7FFFB0
(1628870290.324987) can0 128#0000100000000041
(1628870290.324989) can0 12F#FF7FFF7FFF7FFFB1
(1628870290.324990) can0 0A4#40000000000000EC
(1628870290.341366) can0 0BC#000011FE51FF0023
(1628870290.341369) can0 032#000000000000003A
(1628870290.404856) can0 12A#00000000000032
(1628870290.420952) can0 0A4#40000000000000EC
(1628870290.420954) can0 03F#4702007F000D
(1628870290.437402) can0 0BC#000011FE51FF0023
(1628870290.437405) can0 2C9#000DA7028B000014
(1628870290.437406) can0 33D#0042
(1628870290.468227) can0 0B4#000000006000001C
(1628870290.468229) can0 12D#7FFF7FFF7FFFFFAF
(1628870290.468259) can0 12E#7FFF7FFF7FFFB0
(1628870290.532334) can0 0B4#000000006000001C
(1628870290.548381) can0 2C9#000DA70288000011
(1628870290.548384) can0 12A#00000000000032
(1628870290.579380) can0 236#27FF040067
(1628870290.579383) can0 127#00100008000682D0
(1628870290.579385) can0 0A6#00000040000000EE
(1628870290.579387) can0 3A0#006E000000000029
(1628870290.610325) can0 12D#7FFF7FFF7FFFFFAF
(1628870290.610328) can0 12E#7FFF7FFF7FFFB0
(1628870290.658330) can0 236#27FF040067
(1628870290.689314) can0 032#000000000000003A
(1628870290.689318) can0 0A6#00000040000000EE
(1628870290.689346) can0 03F#4702007F000D
(1628870290.689347) can0 125#F000000000001D
(1628870290.720257) can0 2C9#000DA7028B000014
(1628870290.720260) can0 247#06008000000000
(1628870290.720261) can0 12A#00000000000032
(1628870290.720263) can0 037#000054FFFF0696
(1628870290.784294) can0 0A6#00000040000000EE
(1628870290.800282) can0 037#00005400000698
(1628870290.800285) can0 032#000000100000004A
(1628870290.831214) can0 2C9#000DA70288000011
(1628870290.831217) can0 128#0000100000000041
(1628870290.831219) can0 0B7#0000000000000000
(1628870290.831221) can0 12A#00000000000032
(1628870290.847286) can0 03F#4702007F000D
(1628870290.847289) can0 125#F000000000001D
(1628870290.911189) can0 127#00100008000682D0
(1628870290.926828) can0 3CB#00000000161601
(1628870290.926831) can0 421#0000000000000001
(1628870290.958242) can0 484#1C81000C8C54314A
(1628870290.958245) can0 635#8300000010000000
(1628870290.958246) can0 03F#4702007F000D
(1628870290.958248) can0 2C9#000DA70288000011
(1628870290.989210) can0 0B7#0000000000000000
(1628870290.989213) can0 3C8#002C00000214182D
(1628870291.036973) can0 03F#4702007F000D
(1628870291.068019) can0 125#F000000000001D
(1628870291.068021) can0 247#06008000000000
(1628870291.068023) can0 0B7#0000000000000000
(1628870291.068025) can0 037#000054FFFF0696
(1628870291.099197) can0 3CA#0020000000F3
(1628870291.099200) can0 244#1100000100010061
(1628870291.099201) can0 245#000000004C
(1628870291.099203) can0 330#0000000040000100
(1628870291.163106) can0 032#000000000000003A
(1628870291.195102) can0 0B7#0000000000000000
(1628870291.195104) can0 128#0000100000000041
(1628870291.195106) can0 0A4#40000000000000EC
(1628870291.195108) can0 0BC#000011FE51FF0023
(1628870291.227166) can0 03F#4702007F000D
(1628870291.227169) can0 125#F000000000001D
(1628870291.227171) can0 2C9#000DA70288000011
(1628870291.227173) can0 037#00005400000698
(1628870291.291072) can0 03F#4702007F000D
(1628870291.306741) can0 032#000000000000003A
(1628870291.306743) can0 0A4#40000000000000EC
(1628870291.338136) can0 0BC#000011FE51FF0023
(1628870291.338139) can0 037#000054FFFF0696
(1628870291.338140) can0 0A6#00000040000000EE
(1628870291.338142) can0 2C9#000DA7028B000014
(1628870291.354056) can0 128#0000100000000041
(1628870291.354059) can0 247#06008000000000
(1628870291.418025) can0 4AD#46000B097A25527F
(1628870291.434034) can0 032#000000100000004A
(1628870291.434037) can0 0A6#00000040000000EE
(1628870291.465101) can0 127#00100008000682D0
(1628870291.465103) can0 03F#4702007F000D
(1628870291.465105) can0 2C9#000DA70288000011
(1628870291.465107) can0 037#00005400000698
(1628870291.481015) can0 0B7#0000000000000000
(1628870291.481017) can0 330#0000000040000100
(1628870291.545070) can0 03F#4702007F000D
(1628870291.561076) can0 125#F000000000001D
(1628870291.561079) can0 032#000000000000003A
(1628870291.592083) can0 037#000054FFFF0696
(1628870291.592085) can0 3D3#0000
(1628870291.592087) can0 2C9#000DA7028B000014
(1628870291.592089) can0 0B7#0000000000000000
(1628870291.623037) can0 127#00100008000682D0
(1628870291.623040) can0 32D#00519F4C00000000
(1628870291.623042) can0 420#00000000FEFF80A9
(1628870291.670777) can0 2F0#1000FA00
(1628870291.702799) can0 12D#7FFF7FFF7FFFFFAF
(1628870291.702802) can0 12E#7FFF7FFF7FFFB0
(1628870291.702830) can0 12F#FF7FFF7FFF7FFFB1
(1628870291.702832) can0 128#0000100000000041
(1628870291.733781) can0 247#06008000000000
(1628870291.733783) can0 0B7#0000000000000000
(1628870291.733785) can0 032#000000000000003A
(1628870291.733787) can0 244#1100FFFF0001005E
(1628870291.797908) can0 12A#00000000000032
(1628870291.829902) can0 03F#4702007F000D
(1628870291.829905) can0 0B7#0000000000000000
(1628870291.829907) can0 12D#7FFF7FFF7FFFFFAF
(1628870291.829910) can0 12E#7FFF7FFF7FFFB0
(1628870291.861881) can0 12F#FF7FFF7FFF7FFFB1
(1628870291.861883) can0 037#00005400000698
(1628870291.861885) can0 024#0200020341F880EC
(1628870291.861887) can0 0A4#40000000000000EC
(1628870291.925804) can0 12A#00000000000032
(1628870291.956793) can0 2DF#0000000000000000
(1628870291.956796) can0 127#00100008000682D0
(1628870291.956797) can0 0A4#40000000000000EC
(1628870291.956800) can0 0BC#000011FE51FF0023
(1628870291.972798) can0 12D#7FFF7FFF7FFFFFAF
(1628870291.972801) can0 12E#7FFF7FFF7FFFB0
(1628870292.003332) can0 12F#FF7FFF7FFF7FFFB1
(1628870292.051611) can0 32D#00519F4C00000000
(1628870292.067552) can0 0A4#40000000000000EC
(1628870292.067555) can0 244#1100000000010060
(1628870292.098730) can0 0BC#000011FE51FF0023
(1628870292.098733) can0 03F#4702007F000D
(1628870292.098761) can0 125#F000000000001D
(1628870292.098762) can0 245#000000004C
(1628870292.129729) can0 12A#00000000000032
(1628870292.129732) can0 0B4#000000006000001C
(1628870292.177759) can0 0BC#000011FE51FF0023
(1628870292.208759) can0 037#000054FFFF0696
(1628870292.208762) can0 0B4#000000006000001C
(1628870292.208763) can0 032#000000000000003A
(1628870292.208766) can0 236#27FF050068
(1628870292.224736) can0 0A6#00000040000000EE
(1628870292.224738) can0 128#0000100000000041
(1628870292.255720) can0 12A#00000000000032
(1628870292.255723) can0 03F#4602007F000C
(1628870292.303708) can0 236#27FF050068
(1628870292.334688) can0 127#00100008000682D0
(1628870292.334692) can0 0A6#00000040000000EE
(1628870292.334694) can0 03F#4702007F000D
(1628870292.334696) can0 032#000000000000003A
(1628870292.350722) can0 037#00005400000698
(1628870292.350725) can0 0B7#0000000000000000
(1628870292.381634) can0 12A#00000000000032
(1628870292.381636) can0 247#06008000000000
(1628870292.381638) can0 244#110000000000005F
(1628870292.429763) can0 0A6#00000040000000EE
(1628870292.461279) can0 03F#4702007F000D
(1628870292.461282) can0 125#F000000000001D
(1628870292.461284) can0 245#000000004C
(1628870292.461286) can0 037#00005400000698
(1628870292.477333) can0 0B7#0000000000000000
(1628870292.477336) can0 127#00100008000682D0
(1628870292.508439) can0 032#000000000000003A
(1628870292.508442) can0 3A0#0078000000000028
(1628870292.556534) can0 128#0000100000000041
(1628870292.572599) can0 0B7#0000000000000000
(1628870292.572602) can0 03F#4602007F000C
(1628870292.603572) can0 125#F000000000001D
(1628870292.603575) can0 0A4#40000000000000EC
(1628870292.603577) can0 037#00005400000698
(1628870292.603579) can0 032#000000000000003A
(1628870292.634513) can0 0BC#000011FE51FF0023
(1628870292.634516) can0 2C9#000DA70288000011
(1628870292.682580) can0 032#000000100000004A
(1628870292.713518) can0 0B7#0000000000000000
(1628870292.713521) can0 03F#4602007F000C
(1628870292.713554) can0 3C8#002C00000214182D
(1628870292.713555) can0 037#00005400000698
(1628870292.744532) can0 247#06008000000000
(1628870292.744535) can0 0A4#40000000000000EC
(1628870292.744537) can0 0BC#000011FE51FF0023
(1628870292.744539) can0 244#110000000000005F
(1628870292.808543) can0 12D#7FFF7FFF7FFFFFAF
(1628870292.824565) can0 12E#7FFF7FFF7FFFB0
(1628870292.824568) can0 0B7#0000000000000000
(1628870292.855561) can0 037#00005400000698
(1628870292.855564) can0 12F#FF7FFF7FFF7FFFB1
(1628870292.855566) can0 032#000000000000003A
(1628870292.855568) can0 127#00100008000682D0
(1628870292.886514) can0 0A4#40000000000000EC
(1628870292.886517) can0 4FB#3B00000100000000
(1628870292.934506) can0 128#0000100000000041
(1628870292.950528) can0 12D#7FFF7FFF7FFFFFAF
(1628870292.950531) can0 0A4#40000000000000EC
(1628870292.981214) can0 12E#7FFF7FFF7FFFB0
(1628870292.981217) can0 0BC#000011FE51FF0023
(1628870292.981219) can0 12F#FF7FFF7FFF7FFFB1
(1628870292.981221) can0 3A0#0079000000000027
(1628870293.012234) can0 03F#4602007F000C
(1628870293.012237) can0 125#F000000000001D
(1628870293.060278) can0 03F#4702007F000D
(1628870293.092404) can0 0A4#40000000000000EC
(1628870293.092407) can0 0BC#000011FE51FF0023
(1628870293.092409) can0 12A#00000000000032
(1628870293.092411) can0 330#0000000040000100
(1628870293.124414) can0 037#00005400000698
(1628870293.124417) can0 3CF#10001A0809
(1628870293.124418) can0 247#06008000000000
(1628870293.124420) can0 12D#7FFF7FFF7FFFFFAF
(1628870293.188375) can0 127#00100008000682D0
(1628870293.219531) can0 0A6#00000040000000EE
(1628870293.219534) can0 12A#00000000000032
(1628870293.219535) can0 03F#4602007F000C
(1628870293.219537) can0 12D#7FFF7FFF7FFFFFAF
(1628870293.235445) can0 12E#7FFF7FFF7FFFB0
(1628870293.235448) can0 12F#FF7FFF7FFF7FFFB1
(1628870293.266480) can0 037#00005400000698
(1628870293.266482) can0 0B7#0000000000000000
(1628870293.314378) can0 03F#4602007F000C
(1628870293.330474) can0 0A6#00000040000000EE
(1628870293.330477) can0 125#F000000000001D
(1628870293.361336) can0 032#000000000000003A
(1628870293.361339) can0 037#00005400000698
(1628870293.361340) can0 12A#00000000000032
(1628870293.361342) can0 0B7#0000000000000000
(1628870293.392427) can0 127#00100008000682D0
(1628870293.392429) can0 3CB#00000000161601
(1628870293.440289) can0 247#06008000000000
(1628870293.471268) can0 35C#00800000000000E7
(1628870293.471270) can0 2F0#1000FA00
(1628870293.471272) can0 244#1100000100000060
(1628870293.471273) can0 128#0000100000000041
(1628870293.487315) can0 245#000000004C
(1628870293.487318) can0 032#000000000000003A
(1628870293.517912) can0 0B7#0000000000000000
(1628870293.517914) can0 03F#4602007F000C
(1628870293.517916) can0 125#F000000000001D
(1628870293.566033) can0 127#00100008000682D0
(1628870293.596858) can0 03F#4602007F000C
(1628870293.596861) can0 0B7#0000000000000000
(1628870293.596862) can0 037#000054FFFF0696
(1628870293.596864) can0 032#000000000000003A
(1628870293.628150) can0 0A4#40000000000000EC
(1628870293.628152) can0 0BC#000011FE51FF0023
(1628870293.628154) can0 2F0#1000FA00
(1628870293.628155) can0 128#0000100000000041
(1628870293.644084) can0 0B4#000000006000001C
(1628870293.692151) can0 037#00005400000698
(1628870293.723144) can0 0B7#0000000000000000
(1628870293.723147) can0 127#00100008000682D0
(1628870293.723176) can0 0A4#40000000000000EC
(1628870293.754242) can0 0BC#000011FE51FF0023
(1628870293.754245) can0 0B4#000000006000001C
(1628870293.754247) can0 032#000000100000004A
(1628870293.754248) can0 03F#4602007F000C
(1628870293.754250) can0 236#27FF050068
(1628870293.818167) can0 247#06008000000000
(1628870293.849114) can0 244#11000000FFFF005D
(1628870293.849116) can0 032#000000100000004A
(1628870293.849118) can0 128#0000100000000041
(1628870293.849120) can0 245#000000004C
(1628870293.865167) can0 3CB#01FF0000161601
(1628870293.865170) can0 0A4#40000000000000EC
(1628870293.897005) can0 03F#4602007F000C
(1628870293.897008) can0 0BC#000011FE51FF0023
(1628870293.944981) can0 1D3#00280000FF000003
(1628870293.961178) can0 03F#4602007F000C
(1628870293.961181) can0 3B9#9000000200460000
(1628870293.992179) can0 63B#1600054800004F59
(1628870293.992182) can0 0A4#40000000000000EC
(1628870293.992184) can0 032#000000000000003A
(1628870293.992186) can0 037#000054FFFF0696
(1628870294.007931) can0 0BC#000011FE51FF0023
(1628870294.007933) can0 0B4#000000006000001C
(1628870294.071889) can0 12D#7FFF7FFF7FFFFFAF
(1628870294.103111) can0 12E#7FFF7FFF7FFFB0
(1628870294.103114) can0 12F#FF7FFF7FFF7FFFB1
(1628870294.103116) can0 0B4#000000006000001C
(1628870294.103117) can0 4FB#3B00000100000000
(1628870294.118995) can0 127#00100008000682D0
(1628870294.118997) can0 236#27FF040067
(1628870294.149998) can0 0A6#00000040000000EE
(1628870294.150000) can0 032#000000000000003A
(1628870294.197864) can0 236#27FF050068
(1628870294.229805) can0 12A#00000000000032
(1628870294.229807) can0 1D3#0028000000000004
(1628870294.229810) can0 0A6#00000040000000EE
(1628870294.229812) can0 03F#4602007F000C
(1628870294.262094) can0 125#F000000000001D
(1628870294.262097) can0 12D#7FFF7FFF7FFFFFAF
(1628870294.262100) can0 12E#7FFF7FFF7FFFB0
(1628870294.262101) can0 12F#FF7FFF7FFF7FFFB1
(1628870294.325835) can0 1D3#0028000000000004
(1628870294.342106) can0 12A#00000000000032
(1628870294.342108) can0 2DF#0000000000000000
(1628870294.373115) can0 128#0000100000000041
(1628870294.373118) can0 12D#7FFF7FFF7FFFFFAF
(1628870294.373120) can0 12E#7FFF7FFF7FFFB0
(1628870294.373122) can0 0B7#0000000000000000
(1628870294.403988) can0 12F#FF7FFF7FFF7FFFB1
(1628870294.403990) can0 125#F000000000001D
(1628870294.451998) can0 32D#00515F4C00000000
(1628870294.467832) can0 1D3#0028000000000004
(1628870294.467834) can0 247#06008000000000
(1628870294.499065) can0 03F#4602007F000C
(1628870294.499068) can0 0B7#0000000000000000
(1628870294.499069) can0 12A#00000000000032
(1628870294.499072) can0 3C8#002C00000214182D
(1628870294.514954) can0 244#1100FFFF0001005E
(1628870294.514957) can0 037#000054FFFF0696
(1628870294.579018) can0 0B7#0000000000000000
(1628870294.595028) can0 1D3#0028000000000004
(1628870294.595030) can0 032#000000100000004A
(1628870294.626025) can0 127#00100008000682D0
(1628870294.626028) can0 0A4#40000000000000EC
(1628870294.626030) can0 12A#00000000000032
(1628870294.626032) can0 0BC#010011FE51FF0024
(1628870294.642033) can0 12D#7FFF7FFF7FFFFFAF
(1628870294.642036) can0 03F#4602007F000C
(1628870294.706000) can0 0A4#40000000000000EC
(1628870294.736993) can0 1D3#0028000000000004
(1628870294.736995) can0 0BC#010011FE51FF0024
(1628870294.737027) can0 03F#4602007F000C
(1628870294.737029) can0 032#000000000000003A
(1628870294.767963) can0 125#F000000000001D
(1628870294.767965) can0 037#00005400000698
(1628870294.767967) can0 0A6#00000040000000EE
(1628870294.767969) can0 12A#00000000000032
(1628870294.831940) can0 0BC#010011FE51FF0024
(1628870294.847948) can0 037#00005400000698
(1628870294.847950) can0 245#000000004C
(1628870294.878932) can0 1D3#0028000000000004
(1628870294.878934) can0 0A6#00000040000000EE
(1628870294.878936) can0 128#0000100000000041
(1628870294.878938) can0 032#000000000000003A
(1628870294.909910) can0 3A0#007E000000000026
(1628870294.909913) can0 12A#00000000000032
(1628870294.957847) can0 127#00100008000682D0
(1628870294.973892) can0 0A6#00000040000000EE
(1628870294.973895) can0 1D3#0028000000000004
(1628870295.005408) can0 03F#4602007F000C
(1628870295.005410) can0 037#00005400000698
(1628870295.005412) can0 032#000000000000003A
(1628870295.005413) can0 0B7#0000000000000000
(1628870295.036648) can0 12A#00000000000032
(1628870295.036650) can0 128#0000100000000041
(1628870295.084871) can0 03F#4602007F000C
(1628870295.115760) can0 125#F000000000001D
(1628870295.115763) can0 037#000054FFFF0696
(1628870295.115764) can0 1D3#0028000000000004
(1628870295.115766) can0 0B7#0000000000000000
(1628870295.131803) can0 127#00100008000682D0
(1628870295.131805) can0 247#06008000000000
(1628870295.162820) can0 244#1100000000010060
(1628870295.162822) can0 245#000000004C
(1628870295.162824) can0 032#000000000000003A
(1628870295.210810) can0 2F0#1000FA00
(1628870295.226759) can0 032#000000000000003A
(1628870295.226762) can0 128#0000100000000041
(1628870295.257759) can0 1D3#0028000000000004
(1628870295.257761) can0 0B7#0000000000000000
(1628870295.257763) can0 125#F000000000001D
(1628870295.257765) can0 03F#4602007F000C
(1628870295.288706) can0 037#00005400000698
(1628870295.288709) can0 0A4#40000000000000EC
(1628870295.288711) can0 0BC#010011FE51FF0024
(1628870295.336780) can0 12D#7FFF7FFF7FFFFFAF
(1628870295.352706) can0 12E#7FFF7FFF7FFFB0
(1628870295.352708) can0 12F#FF7FFF7FFF7FFFB1
(1628870295.383665) can0 348#00020000002C0485
(1628870295.383668) can0 03F#4602007F000C
(1628870295.383670) can0 3A0#007E000000000026
(1628870295.383671) can0 0B7#0000000000000000
(1628870295.399779) can0 032#000000000000003A
(1628870295.399781) can0 037#00005400000698
(1628870295.463541) can0 037#000054FFFF0696
(1628870295.494640) can0 0B7#0000000000000000
(1628870295.494642) can0 348#00020000002C0485
(1628870295.494644) can0 12D#7FFF7FFF7FFFFFAF
(1628870295.494646) can0 12E#7FFF7FFF7FFFB0
(1628870295.525545) can0 12F#FF7FFF7FFF7FFFB1
(1628870295.525547) can0 127#00100008000682D0
(1628870295.525579) can0 247#06008000000000
(1628870295.525581) can0 244#1100000000010060
(1628870295.589569) can0 0B7#0000000000000000
(1628870295.620581) can0 128#0000100000000041
(1628870295.620584) can0 12A#00000000000032
(1628870295.620586) can0 348#00020000002C0485
(1628870295.620588) can0 0A4#40000000000000EC
(1628870295.651561) can0 03F#4602007F000C
(1628870295.651563) can0 125#F000000000001D
(1628870295.651566) can0 12D#7FFF7FFF7FFFFFAF
(1628870295.651568) can0 0BC#000011FE51FF0023
(1628870295.715414) can0 032#000000000000003A
(1628870295.746526) can0 0A4#40000000000000EC
(1628870295.746529) can0 037#00005400000698
(1628870295.746560) can0 0BC#000011FE51FF0023
(1628870295.746562) can0 12A#00000000000032
(1628870295.777531) can0 0B4#000000006000001C
(1628870295.777534) can0 348#00020000002C0485
(1628870295.777536) can0 236#27FF050068
(1628870295.777537) can0 128#0000100000000041
(1628870295.841496) can0 0A4#40000000000000EC
(1628870295.857405) can0 0BC#000011FE51FF0023
(1628870295.857408) can0 1D2#990402AA028800AE
(1628870295.888499) can0 127#00100008000682D0
(1628870295.888501) can0 0B4#000000006000001C
(1628870295.888503) can0 247#06008000000000
(1628870295.888505) can0 032#000000000000003A
(1628870295.904419) can0 236#27FF050068
(1628870295.904421) can0 244#1100000200010062
(1628870295.968470) can0 0B4#000000006000001C
(1628870295.999460) can0 236#27FF050068
(1628870295.999463) can0 125#F000000000001D
(1628870295.999465) can0 03F#4602007F000C
(1628870295.999467) can0 1D2#990402AD028B00B4
(1628870296.015229) can0 0A6#00000040000000EE
(1628870296.015232) can0 037#00005400000698
(1628870296.046295) can0 032#000000100000004A
(1628870296.046297) can0 348#00020000002C0485
(1628870296.094430) can0 236#27FF050068
(1628870296.110448) can0 037#000054FFFF0696
(1628870296.110451) can0 2CB#3A249600C6
(1628870296.142452) can0 0A6#00000040000000EE
(1628870296.142454) can0 1D2#990402AA028800AE
(1628870296.142485) can0 128#0000100000000041
(1628870296.142487) can0 348#00020000002C0485
(1628870296.174333) can0 032#000000000000003A
(1628870296.174336) can0 0B7#0000000000000000
(1628870296.222428) can0 245#000000004C
(1628870296.253484) can0 1D2#990402AA028800AE
(1628870296.253487) can0 03F#4602007F000C
(1628870296.253489) can0 3C8#002C00000214182D
(1628870296.253490) can0 0B7#0000000000000000
(1628870296.284355) can0 037#000054FFFF0696
(1628870296.284358) can0 348#00020000002C0485
(1628870296.284360) can0 032#000000000000003A
(1628870296.284362) can0 0A4#40000000000000EC
(1628870296.348302) can0 2CB#3A249600C6
(1628870296.380367) can0 037#000054FFFF0696
(1628870296.380370) can0 0B7#0000000000000000
(1628870296.380371) can0 1D2#990402AD028B00B4
(1628870296.380373) can0 127#00100008000682D0
(1628870296.412312) can0 35C#00800000000000E7
(1628870296.412315) can0 32D#0051DF4C00000000
(1628870296.412317) can0 348#00020000002C0485
(1628870296.412319) can0 0A4#40000000000000EC
(1628870296.476316) can0 125#F000000000001D
(1628870296.492378) can0 03F#4602007F000C
(1628870296.492381) can0 1D2#990402AA028800AE
(1628870296.523426) can0 0A4#40000000000000EC
(1628870296.523429) can0 0BC#000011FE51FF0023
(1628870296.523431) can0 037#000054FFFF0696
(1628870296.523432) can0 247#06008000000000
(1628870296.539325) can0 244#11000002FFFF005F
(1628870296.539328) can0 348#00020000002C0485
(1628870296.603272) can0 3CF#10001A0809
(1628870296.619373) can0 0BC#000011FE51FF0023
(1628870296.619376) can0 032#000000100000004A
(1628870296.650350) can0 1D2#990402B0028E00BA
(1628870296.650353) can0 128#0000100000000041
(1628870296.650355) can0 0A6#00000040000000EE
(1628870296.650357) can0 348#00020000002C0485
(1628870296.681071) can0 125#F000000000001D
(1628870296.681074) can0 03F#4602007F000C
(1628870296.729240) can0 12F#FF7FFF7FFF7FFFB1
(1628870296.745342) can0 2CB#3A249600C6
(1628870296.745345) can0 1D2#990402AD028B00B4
(1628870296.777321) can0 03F#4602007F000C
(1628870296.777324) can0 0A6#00000040000000EE
(1628870296.777326) can0 4AF#0040000800000000
(1628870296.777327) can0 032#000000100000004A
(1628870296.808287) can0 3CB#01FF0000161601
(1628870296.808290) can0 037#000054FFFF0696
(1628870296.856290) can0 037#00005400000698
(1628870296.872284) can0 2CB#3A249600C6
(1628870296.872287) can0 247#06008000000000
(1628870296.903185) can0 12D#7FFF7FFF7FFFFFAF
(1628870296.903188) can0 12E#7FFF7FFF7FFFB0
(1628870296.903190) can0 12F#FF7FFF7FFF7FFFB1
(1628870296.903192) can0 244#1100000300010063
(1628870296.934131) can0 1D2#990402A7028500A8
(1628870296.934134) can0 245#000000004C
(1628870296.982230) can0 128#0000100000000041
(1628870297.012962) can0 12A#00000000000032
(1628870297.012965) can0 2CB#3A249600C6
(1628870297.012967) can0 39B#0004000000000000
(1628870297.012968) can0 400#0000000000000000
(1628870297.028975) can0 12D#7FFF7FFF7FFFFFAF
(1628870297.028978) can0 125#F000000000001D
(1628870297.059944) can0 03F#4602007F000C
(1628870297.059947) can0 12E#7FFF7FFF7FFFB0
(1628870297.108202) can0 032#000000000000003A
(1628870297.124148) can0 03F#4602007F000C
(1628870297.124151) can0 037#00005400000698
(1628870297.155190) can0 0B7#0000000000000000
(1628870297.155193) can0 12A#00000000000032
(1628870297.155224) can0 2CB#3A249600C6
(1628870297.155227) can0 1D2#990402AA028800AE
(1628870297.155228) can0 2F0#1000FA00
(1628870297.186173) can0 12D#7FFF7FFF7FFFFFAF
(1628870297.186175) can0 128#0000100000000041
(1628870297.234060) can0 244#110000000000005F
(1628870297.265025) can0 3CB#00000000161601
(1628870297.265027) can0 245#000000004C
(1628870297.265029) can0 0B7#0000000000000000
(1628870297.265030) can0 032#000000000000003A
(1628870297.281159) can0 127#00100008000682D0
(1628870297.281162) can0 2CB#3A249600C6
(1628870297.312100) can0 12A#00000000000032
(1628870297.312103) can0 3A0#0080000000000028
(1628870297.360104) can0 125#F000000000001D
(1628870297.376062) can0 03F#4602007F000C
(1628870297.376065) can0 3CA#0020000000F3
(1628870297.407096) can0 0A4#40000000000000EC
(1628870297.407098) can0 032#000000000000003A
(1628870297.407100) can0 037#00005400000698
(1628870297.407102) can0 0BC#000011FE51FF0023
(1628870297.437973) can0 0B4#000000006000001C
(1628870297.437977) can0 2CB#3A249600C6
(1628870297.485945) can0 2C9#000DA7028B000014
(1628870297.516839) can0 037#000054FFFF0696
(1628870297.516842) can0 0A4#40000000000000EC
(1628870297.516845) can0 0BC#000011FE51FF0023
(1628870297.516847) can0 0B4#000000006000001C
(1628870297.532953) can0 128#0000100000000041
(1628870297.532955) can0 330#0000000040000100
(1628870297.563947) can0 236#27FF050068
(1628870297.563950) can0 2CB#3A249600C6
(1628870297.611948) can0 245#000000004C
(1628870297.627898) can0 032#000000100000004A
(1628870297.627901) can0 127#00100008000682D0
(1628870297.658936) can0 2C9#000DA70288000011
(1628870297.658939) can0 0A4#40000000000000EC
(1628870297.658941) can0 0BC#000011FE51FF0023
(1628870297.658943) can0 0B4#000000006000001C
(1628870297.689831) can0 49D#8483023E7CF60700
(1628870297.689833) can0 03F#4602007F000C
(1628870297.737908) can0 0A4#40000000000000EC
(1628870297.753925) can0 0BC#000011FE51FF0023
(1628870297.753928) can0 125#F000000000001D
(1628870297.784927) can0 03F#4602007F000C
(1628870297.784930) can0 0B4#000000006000001C
(1628870297.784932) can0 2C9#000DA7028E000017
(1628870297.784933) can0 032#000000000000003A
(1628870297.815760) can0 236#27FF050068
(1628870297.815763) can0 3A0#007F000000000028
(1628870297.863875) can0 037#00005400000698
(1628870297.894897) can0 3CA#0020000000F3
(1628870297.894899) can0 0B4#000000006000001C
(1628870297.894901) can0 499#D50041800000000F
(1628870297.894904) can0 12D#7FFF7FFF7FFFFFAF
(1628870297.925878) can0 12E#7FFF7FFF7FFFB0
(1628870297.925881) can0 12F#FF7FFF7FFF7FFFB1
(1628870297.925882) can0 236#27FF050068
(1628870297.925885) can0 0A6#00000040000000EE
(1628870297.989819) can0 127#00100008000682D0
(1628870298.020502) can0 236#27FF040067
(1628870298.020504) can0 12A#00000000000032
(1628870298.020506) can0 0A6#00000040000000EE
(1628870298.020508) can0 03F#4602007F000C
(1628870298.036645) can0 12D#7FFF7FFF7FFFFFAF
(1628870298.036648) can0 12E#7FFF7FFF7FFFB0
(1628870298.067556) can0 12F#FF7FFF7FFF7FFFB1
(1628870298.067560) can0 2C9#000DA70288000011
(1628870298.115795) can0 125#F000000000001D
(1628870298.146790) can0 03F#4602007F000C
(1628870298.146793) can0 032#000000000000003A
(1628870298.146795) can0 49D#8483023E7CF60700
(1628870298.146797) can0 037#00005400000698
(1628870298.162890) can0 12A#00000000000032
(1628870298.162893) can0 0B7#0000000000000000
(1628870298.193717) can0 127#00100008000682D0
(1628870298.193720) can0 2C9#000DA70288000011
(1628870298.257856) can0 128#0000100000000041
(1628870298.257859) can0 032#000000000000003A
(1628870298.288760) can0 0B7#0000000000000000
(1628870298.288762) can0 247#06008000000000
(1628870298.288764) can0 12A#00000000000032
(1628870298.288765) can0 125#F000000000001D
(1628870298.288767) can0 03F#4602007F000C
